(1649688825.054938) vcan0 166#D0320009
(1649688825.056146) vcan0 158#000000000000000A
(1649688825.056176) vcan0 161#000005500108000D
(1649688825.056181) vcan0 191#010090A1410030
(1649688825.056185) vcan0 133#0000000098
(1649688825.056189) vcan0 136#000200000000001B
(1649688825.057335) vcan0 13A#0000000000000019
(1649688825.057367) vcan0 13F#000000050000001F
(1649688825.057372) vcan0 164#0000C01AA8000031
(1649688825.057376) vcan0 17C#0000000010000012
(1649688825.057380) vcan0 18E#00005C
(1649688825.057735) vcan0 244#00000001F8
(1649688825.058774) vcan0 039#000C
(1649688825.058798) vcan0 183#0000000A00001010
(1649688825.060042) vcan0 143#6B6B00D1
(1649688825.061251) vcan0 095#800007F400000008
(1649688825.064732) vcan0 166#D0320018
(1649688825.065933) vcan0 158#0000000000000019
(1649688825.065968) vcan0 161#000005500108001C
(1649688825.065974) vcan0 191#010090A1410003
(1649688825.065978) vcan0 133#00000000A7
(1649688825.067207) vcan0 136#000200000000002A
(1649688825.067249) vcan0 13A#0000000000000028
(1649688825.067255) vcan0 13F#000000050000002E
(1649688825.067260) vcan0 164#0000C01AA8000004
(1649688825.067264) vcan0 17C#0000000010000021
(1649688825.067268) vcan0 18E#00006B
(1649688825.068389) vcan0 1CF#80050000001E
(1649688825.068429) vcan0 1DC#0200001B
(1649688825.068435) vcan0 183#0000000700001022
(1649688825.069608) vcan0 143#6B6B00E0
(1649688825.070779) vcan0 333#0000000000002D
(1649688825.072042) vcan0 095#800007F400000017
(1649688825.072093) vcan0 1A4#000000080000003E
(1649688825.073343) vcan0 244#00000001B4
(1649688825.073404) vcan0 1AA#7FFF00000000673F
(1649688825.073414) vcan0 1B0#000F0000000175
(1649688825.073421) vcan0 1D0#000000000000000A
(1649688825.073426) vcan0 039#001B
(1649688825.074532) vcan0 166#D0320027
(1649688825.075717) vcan0 158#0000000000000028
(1649688825.075765) vcan0 161#000005500108002B
(1649688825.075771) vcan0 191#010090A1410012
(1649688825.075776) vcan0 133#00000000B6
(1649688825.076999) vcan0 136#0002000000000039
(1649688825.077056) vcan0 13A#0000000000000037
(1649688825.077063) vcan0 13F#000000050000003D
(1649688825.077068) vcan0 164#0000C01AA8000013
(1649688825.077072) vcan0 17C#0000000010000030
(1649688825.078212) vcan0 18E#00007A
(1649688825.078257) vcan0 294#040B0002CF5A003B
(1649688825.078264) vcan0 21E#03E8374522063E
(1649688825.079472) vcan0 183#0000000500001033
(1649688825.079523) vcan0 143#6B6B00FF
(1649688825.081875) vcan0 095#800007F400000026
(1649688825.084322) vcan0 166#D0320036
(1649688825.085532) vcan0 158#0000000000000037
(1649688825.085572) vcan0 161#000005500108003A
(1649688825.085578) vcan0 191#010010A1410029
(1649688825.086773) vcan0 133#0000000089
(1649688825.086824) vcan0 136#000200000000000C
(1649688825.086830) vcan0 13A#000000000000000A
(1649688825.086835) vcan0 13F#0000000500000000
(1649688825.086839) vcan0 164#0000C01AA8000022
(1649688825.088086) vcan0 17C#0000000010000003
(1649688825.088127) vcan0 18E#00004D
(1649688825.088133) vcan0 1CF#80050000002D
(1649688825.088138) vcan0 1DC#0200002A
(1649688825.088142) vcan0 320#000021
(1649688825.088147) vcan0 324#7465000000000E29
(1649688825.088151) vcan0 37C#FD00FD00097F0029
(1649688825.088982) vcan0 244#00000001E2
(1649688825.089328) vcan0 183#0000000B00001000
(1649688825.089358) vcan0 143#6B6B00C2
(1649688825.091806) vcan0 095#800007F400000035
(1649688825.091851) vcan0 1A4#0000000800000001
(1649688825.093005) vcan0 1AA#7FFF000000006801
(1649688825.093041) vcan0 1B0#000F0000000148
(1649688825.093047) vcan0 1D0#000000000000000A
(1649688825.093051) vcan0 039#002A
(1649688825.094232) vcan0 166#D0320009
(1649688825.095533) vcan0 158#000000000000000A
(1649688825.095576) vcan0 161#000005500108000D
(1649688825.095582) vcan0 191#010010A1410038
(1649688825.096836) vcan0 133#0000000098
(1649688825.096890) vcan0 136#000200000000001B
(1649688825.096898) vcan0 13A#0000000000000019
(1649688825.096904) vcan0 13F#000000050000001F
(1649688825.096910) vcan0 164#0000C01AA8000031
(1649688825.098140) vcan0 17C#0000000010000012
(1649688825.098191) vcan0 18E#00005C
(1649688825.099434) vcan0 183#0000000800001012
(1649688825.099486) vcan0 143#6B6B00D1
(1649688825.099490) vcan0 244#00000001AE
(1649688825.101862) vcan0 095#800007F400000008
(1649688825.104385) vcan0 166#D0320018
(1649688825.105565) vcan0 158#0000000000000019
(1649688825.105603) vcan0 161#000005500108001C
(1649688825.105610) vcan0 191#010010A141000B
(1649688825.106863) vcan0 039#0039
(1649688825.106916) vcan0 133#00000000A7
(1649688825.106924) vcan0 136#000200000000002A
(1649688825.106930) vcan0 13A#0000000000000028
(1649688825.106936) vcan0 13F#000000050000002E
(1649688825.106942) vcan0 164#0000C01AA8000004
(1649688825.108277) vcan0 17C#0000000010000021
(1649688825.108342) vcan0 18E#00006B
(1649688825.108350) vcan0 1CF#80050000003C
(1649688825.108356) vcan0 1DC#02000039
(1649688825.108362) vcan0 183#0000000D0000102C
(1649688825.109665) vcan0 143#6B6B00E0
(1649688825.112413) vcan0 095#800007F400000017
(1649688825.112484) vcan0 1A4#0000000800000010
(1649688825.112493) vcan0 1AA#7FFF000000006810
(1649688825.112499) vcan0 1B0#000F0000000157
(1649688825.113809) vcan0 1D0#000000000000000A
(1649688825.113881) vcan0 166#D0320027
(1649688825.115141) vcan0 158#0000000000000028
(1649688825.115159) vcan0 244#0000000123
(1649688825.116528) vcan0 161#000005500108002B
(1649688825.116617) vcan0 191#010010A141001A
(1649688825.116625) vcan0 133#00000000B6
(1649688825.116632) vcan0 136#0002000000000039
(1649688825.116638) vcan0 13A#0000000000000037
(1649688825.116644) vcan0 13F#000000050000003D
(1649688825.117942) vcan0 164#0000C01AA8000013
(1649688825.117992) vcan0 17C#0000000010000030
(1649688825.118008) vcan0 18E#00007A
(1649688825.118016) vcan0 294#040B0002CF5A000E
(1649688825.118026) vcan0 21E#03E83745220601
(1649688825.118090) vcan0 309#00000000000000B1
(1649688825.119240) vcan0 183#0000001100001036
(1649688825.119285) vcan0 143#6B6B00FF
(1649688825.121651) vcan0 039#000C
(1649688825.121691) vcan0 095#800007F400000026
(1649688825.124067) vcan0 166#D0320036
(1649688825.125393) vcan0 158#0000000000000037
(1649688825.125462) vcan0 161#000005500108003A
(1649688825.125655) vcan0 244#0000000102
(1649688825.126681) vcan0 191#010010A1410029
(1649688825.126694) vcan0 164#0000C01AA8000022
(1649688825.126700) vcan0 133#0000000089
(1649688825.126705) vcan0 136#000200000000000C
(1649688825.126709) vcan0 13A#000000000000000A
(1649688825.126713) vcan0 13F#0000000500000000
(1649688825.127983) vcan0 17C#0000000010000003
(1649688825.128027) vcan0 18E#00004D
(1649688825.128033) vcan0 1CF#80050000000F
(1649688825.128045) vcan0 1DC#0200000C
(1649688825.129273) vcan0 183#0000000C0000100F
(1649688825.129316) vcan0 143#6B6B00C2
(1649688825.131724) vcan0 095#800007F400000035
(1649688825.133071) vcan0 1A4#000000080000002F
(1649688825.133134) vcan0 1AA#7FFF000000006720
(1649688825.133142) vcan0 1B0#000F0000000166
(1649688825.133148) vcan0 1D0#000000000000000A
(1649688825.134243) vcan0 166#D0320009
(1649688825.135494) vcan0 158#000000000000000A
(1649688825.135566) vcan0 161#000005500108000D
(1649688825.135575) vcan0 191#010010A1410038
(1649688825.136841) vcan0 039#001B
(1649688825.136908) vcan0 133#0000000098
(1649688825.136918) vcan0 136#000200000000001B
(1649688825.136925) vcan0 13A#0000000000000019
(1649688825.136930) vcan0 13F#000000050000001F
(1649688825.136936) vcan0 164#0000C01AA8000031
(1649688825.138295) vcan0 17C#0000000010000012
(1649688825.138410) vcan0 18E#00005C
(1649688825.139619) vcan0 183#0000001000001019
(1649688825.139675) vcan0 143#6B6B00D1
(1649688825.141347) vcan0 244#00000001BD
(1649688825.142084) vcan0 095#800007F400000008
(1649688825.144451) vcan0 166#D0320018
(1649688825.145650) vcan0 158#0000000000000019
(1649688825.145683) vcan0 161#000005500108001C
(1649688825.145689) vcan0 191#010010A141000B
(1649688825.146867) vcan0 133#00000000A7
(1649688825.146903) vcan0 136#000200000000002A
(1649688825.146909) vcan0 13A#0000000000000028
(1649688825.146913) vcan0 13F#000000050000002E
(1649688825.146918) vcan0 164#0000C01AA8000004
(1649688825.148165) vcan0 17C#0000000010000021
(1649688825.148240) vcan0 18E#00006B
(1649688825.148246) vcan0 1CF#80050000001E
(1649688825.148252) vcan0 1DC#0200001B
(1649688825.148257) vcan0 183#0000000C0000102D
(1649688825.149457) vcan0 143#6B6B00E0
(1649688825.150649) vcan0 039#002A
(1649688825.150688) vcan0 305#8035
(1649688825.151851) vcan0 095#800007F400000017
(1649688825.151895) vcan0 1A4#000000080000003E
(1649688825.153121) vcan0 1AA#7FFF00000000673F
(1649688825.153164) vcan0 1B0#000F0000000175
(1649688825.153170) vcan0 1D0#000000000000000A
(1649688825.154328) vcan0 166#D0320027
(1649688825.155509) vcan0 158#0000000000000028
(1649688825.155550) vcan0 161#000005500108002B
(1649688825.155556) vcan0 191#010010A141001A
(1649688825.156788) vcan0 133#00000000B6
(1649688825.156813) vcan0 136#0002000000000039
(1649688825.156819) vcan0 13A#0000000000000037
(1649688825.156824) vcan0 13F#000000050000003D
(1649688825.156829) vcan0 164#0000C01AA8000013
(1649688825.156977) vcan0 244#0000000165
(1649688825.157962) vcan0 17C#0000000010000030
(1649688825.157976) vcan0 18E#00007A
(1649688825.157981) vcan0 294#040B0002CF5A001D
(1649688825.157986) vcan0 21E#03E83745220610
(1649688825.159201) vcan0 183#000000090000103F
(1649688825.159236) vcan0 143#6B6B00FF
(1649688825.161677) vcan0 095#800007F400000026
(1649688825.164130) vcan0 166#D0320036
(1649688825.165396) vcan0 039#0039
(1649688825.165427) vcan0 158#0000000000000037
(1649688825.165432) vcan0 161#000005500108003A
(1649688825.166559) vcan0 191#010010A1410029
(1649688825.166597) vcan0 133#0000000089
(1649688825.166603) vcan0 136#000200000000000C
(1649688825.166607) vcan0 13A#000000000000000A
(1649688825.166610) vcan0 13F#0000000500000000
(1649688825.167456) vcan0 244#0000000169
(1649688825.167765) vcan0 164#0000C01AA9000021
(1649688825.167792) vcan0 17C#0000000010000003
(1649688825.167797) vcan0 18E#00004D
(1649688825.167801) vcan0 1CF#80050000002D
(1649688825.167805) vcan0 1DC#0200002A
(1649688825.168927) vcan0 183#0000000E0000100D
(1649688825.170166) vcan0 143#6B6B00C2
(1649688825.170209) vcan0 333#0000000000003C
(1649688825.171475) vcan0 095#800007F400000035
(1649688825.172790) vcan0 1A4#0000000800000001
(1649688825.172843) vcan0 1AA#7FFF000000006801
(1649688825.172851) vcan0 1B0#000F0000000148
(1649688825.172858) vcan0 1D0#000000000000000A
(1649688825.174059) vcan0 166#D0320009
(1649688825.175404) vcan0 158#000000000000000A
(1649688825.175467) vcan0 161#000005500108000D
(1649688825.176803) vcan0 191#010010A1410038
(1649688825.176859) vcan0 133#0000000098
(1649688825.176866) vcan0 136#000200000000001B
(1649688825.176893) vcan0 13A#0000000000000019
(1649688825.176899) vcan0 13F#000000050000001F
(1649688825.176905) vcan0 164#0000C01AA8000031
(1649688825.178123) vcan0 17C#0000000010000012
(1649688825.178174) vcan0 18E#00005C
(1649688825.178180) vcan0 039#000C
(1649688825.179463) vcan0 183#0000000A00001010
(1649688825.179512) vcan0 143#6B6B00D1
(1649688825.182286) vcan0 095#800007F400000008
(1649688825.183448) vcan0 244#0000000141
(1649688825.184718) vcan0 166#D0320018
(1649688825.185930) vcan0 158#0000000000000019
(1649688825.185993) vcan0 161#000005500108001C
(1649688825.186001) vcan0 191#010010A141000B
(1649688825.186141) vcan0 133#00000000A7
(1649688825.186178) vcan0 136#000200000000002A
(1649688825.187421) vcan0 13A#0000000000000028
(1649688825.187464) vcan0 13F#000000050000002E
(1649688825.187471) vcan0 164#0000C01AA8000004
(1649688825.187475) vcan0 17C#0000000010000021
(1649688825.187480) vcan0 18E#00006B
(1649688825.187484) vcan0 1CF#80050000003C
(1649688825.188628) vcan0 1DC#02000039
(1649688825.188682) vcan0 320#000030
(1649688825.188690) vcan0 324#7465000000000E38
(1649688825.188695) vcan0 37C#FD00FD00097F0038
(1649688825.188700) vcan0 40C#0000000004000013
(1649688825.188704) vcan0 183#0000000F0000102A
(1649688825.189883) vcan0 454#23EF18
(1649688825.189920) vcan0 143#6B6B00E0
(1649688825.192417) vcan0 095#800007F400000017
(1649688825.192477) vcan0 1A4#0000000800000010
(1649688825.192485) vcan0 1AA#7FFF000000006810
(1649688825.192491) vcan0 1B0#000F0000000157
(1649688825.193765) vcan0 1D0#000000000000000A
(1649688825.193826) vcan0 166#D0320027
(1649688825.195098) vcan0 158#0000000000000028
(1649688825.196458) vcan0 161#000005500108002B
(1649688825.196519) vcan0 191#010010A141001A
(1649688825.196528) vcan0 133#00000000B6
(1649688825.196534) vcan0 136#0002000000000039
(1649688825.196540) vcan0 13A#0000000000000037
(1649688825.196546) vcan0 13F#000000050000003D
(1649688825.197880) vcan0 164#0000C01AA9000012
(1649688825.197951) vcan0 17C#0000000010000030
(1649688825.197959) vcan0 18E#00007A
(1649688825.197966) vcan0 294#040B0002CF5A002C
(1649688825.197972) vcan0 039#001B
(1649688825.197977) vcan0 21E#03E8374522062F
(1649688825.199212) vcan0 183#0000001300001034
(1649688825.199303) vcan0 143#6B6B00FF
(1649688825.199302) vcan0 244#00000001DD
(1649688825.201796) vcan0 095#800007F400000026
(1649688825.204273) vcan0 166#D0320036
(1649688825.205574) vcan0 158#0000000000000037
(1649688825.205620) vcan0 161#000005500108003A
(1649688825.205628) vcan0 191#010010A1410029
(1649688825.206842) vcan0 164#0000C01AA8000022
(1649688825.206904) vcan0 133#0000000089
(1649688825.206912) vcan0 136#000200000000000C
(1649688825.206918) vcan0 13A#000000000000000A
(1649688825.206924) vcan0 13F#0000000500000000
(1649688825.206930) vcan0 17C#0000000010000003
(1649688825.208175) vcan0 18E#00004D
(1649688825.208219) vcan0 1CF#80050000000F
(1649688825.208225) vcan0 1DC#0200000C
(1649688825.209533) vcan0 183#0000000E0000100D
(1649688825.209591) vcan0 143#6B6B00C2
(1649688825.212103) vcan0 095#800007F400000035
(1649688825.212170) vcan0 1A4#000000080000002F
(1649688825.212179) vcan0 1AA#7FFF000000006720
(1649688825.213549) vcan0 1B0#000F0000000166
(1649688825.213620) vcan0 1D0#000000000000000A
(1649688825.214866) vcan0 166#D0320009
(1649688825.214986) vcan0 244#00000001B5
(1649688825.216248) vcan0 158#000000000000000A
(1649688825.216296) vcan0 161#000005500108000D
(1649688825.216304) vcan0 191#010010A1410038
(1649688825.216310) vcan0 133#0000000098
(1649688825.216316) vcan0 136#000200000000001B
(1649688825.216322) vcan0 13A#0000000000000019
(1649688825.217507) vcan0 13F#000000050000001F
(1649688825.217558) vcan0 164#0000C01AA8000031
(1649688825.217564) vcan0 17C#0000000010000012
(1649688825.217569) vcan0 18E#00005C
(1649688825.217574) vcan0 309#0000000000000084
(1649688825.218777) vcan0 428#01040000521C2F
(1649688825.218836) vcan0 405#0000040000000029
(1649688825.218843) vcan0 039#002A
(1649688825.218848) vcan0 183#0000001200001017
(1649688825.220103) vcan0 143#6B6B00D1
(1649688825.221478) vcan0 095#800007F400000008
(1649688825.223845) vcan0 166#D0320018
(1649688825.225305) vcan0 158#0000000000000019
(1649688825.225348) vcan0 161#000005500108001C
(1649688825.225417) vcan0 244#00000001D1
(1649688825.226516) vcan0 191#010010A141000B
(1649688825.226545) vcan0 164#0000C01AA8000004
(1649688825.226550) vcan0 133#00000000A7
(1649688825.226556) vcan0 136#000200000000002A
(1649688825.226560) vcan0 13A#0000000000000028
(1649688825.227804) vcan0 13F#000000050000002E
(1649688825.227846) vcan0 17C#0000000010000021
(1649688825.227852) vcan0 18E#00006B
(1649688825.227864) vcan0 1CF#80050000001E
(1649688825.227869) vcan0 1DC#0200001B
(1649688825.229112) vcan0 183#0000000D0000102C
(1649688825.229157) vcan0 143#6B6B00E0
(1649688825.231596) vcan0 095#800007F400000017
(1649688825.231658) vcan0 039#0039
(1649688825.233014) vcan0 1A4#000000080000003E
(1649688825.233085) vcan0 1AA#7FFF00000000683E
(1649688825.233093) vcan0 1B0#000F0000000175
(1649688825.233100) vcan0 1D0#000000000000000A
(1649688825.234281) vcan0 166#D0320027
(1649688825.235664) vcan0 158#0000000000000028
(1649688825.235733) vcan0 161#000005500108002B
(1649688825.235743) vcan0 191#010010A141001A
(1649688825.235749) vcan0 133#00000000B6
(1649688825.237113) vcan0 136#0002000000000039
(1649688825.237181) vcan0 13A#0000000000000037
(1649688825.237189) vcan0 13F#000000050000003D
(1649688825.237195) vcan0 164#0000C01AA8000013
(1649688825.237202) vcan0 17C#0000000010000030
(1649688825.237208) vcan0 18E#00007A
(1649688825.238404) vcan0 294#040B0002CF5A003B
(1649688825.238469) vcan0 21E#03E8374522063E
(1649688825.239764) vcan0 183#000000090000103F
(1649688825.239818) vcan0 143#6B6B00FF
(1649688825.241069) vcan0 244#0000000112
(1649688825.242138) vcan0 095#800007F400000026
(1649688825.244472) vcan0 166#D0320036
(1649688825.245837) vcan0 158#0000000000000037
(1649688825.245895) vcan0 161#000005500108003A
(1649688825.245904) vcan0 191#010010A1410029
(1649688825.245910) vcan0 164#0000C01AA8000022
(1649688825.247111) vcan0 133#0000000089
(1649688825.247173) vcan0 136#000200000000000C
(1649688825.247181) vcan0 13A#000000000000000A
(1649688825.247188) vcan0 13F#0000000500000000
(1649688825.247193) vcan0 17C#0000000010000003
(1649688825.247200) vcan0 18E#00004D
(1649688825.247205) vcan0 039#000C
(1649688825.248472) vcan0 1CF#80050000002D
(1649688825.248530) vcan0 1DC#0200002A
(1649688825.248538) vcan0 183#0000000E0000100D
(1649688825.249917) vcan0 143#6B6B00C2
(1649688825.251425) vcan0 244#000000016A
(1649688825.252361) vcan0 095#800007F400000035
(1649688825.252396) vcan0 1A4#0000000800000001
(1649688825.252403) vcan0 1AA#7FFF000000006801
(1649688825.252409) vcan0 1B0#000F0000000148
(1649688825.253562) vcan0 1D0#000000000000000A
(1649688825.254697) vcan0 166#D0320009
(1649688825.254732) vcan0 305#8008
(1649688825.255877) vcan0 158#000000000000000A
(1649688825.255893) vcan0 161#000005500108000D
(1649688825.255900) vcan0 191#010010A1410038
(1649688825.255904) vcan0 133#0000000098
(1649688825.257091) vcan0 136#000200000000001B
(1649688825.257122) vcan0 13A#0000000000000019
(1649688825.257127) vcan0 13F#000000050000001F
(1649688825.257131) vcan0 164#0000C01AA8000031
(1649688825.257135) vcan0 17C#0000000010000012
(1649688825.257139) vcan0 18E#00005C
(1649688825.259503) vcan0 183#0000000A00001010
(1649688825.259534) vcan0 143#6B6B00D1
(1649688825.261916) vcan0 095#800007F400000008
(1649688825.261948) vcan0 039#001B
(1649688825.264427) vcan0 166#D0320018
(1649688825.265734) vcan0 158#0000000000000019
(1649688825.265786) vcan0 161#000005500108001C
(1649688825.265794) vcan0 191#010010A141000B
(1649688825.265800) vcan0 133#00000000A7
(1649688825.267031) vcan0 136#000200000000002A
(1649688825.267081) vcan0 13A#0000000000000028
(1649688825.267089) vcan0 13F#000000050000002E
(1649688825.267094) vcan0 164#0000C01AA8000004
(1649688825.267100) vcan0 17C#0000000010000021
(1649688825.267106) vcan0 18E#00006B
(1649688825.267154) vcan0 244#0000000145
(1649688825.268308) vcan0 1CF#80050000003C
(1649688825.268353) vcan0 1DC#02000039
(1649688825.268362) vcan0 183#0000000F0000102A
(1649688825.269576) vcan0 143#6B6B00E0
(1649688825.270788) vcan0 333#0000000000000F
(1649688825.272029) vcan0 095#800007F400000017
(1649688825.272060) vcan0 1A4#0000000800000010
(1649688825.272066) vcan0 1AA#7FFF000000006810
(1649688825.273194) vcan0 1B0#000F0000000157
(1649688825.273208) vcan0 1D0#000000000000000A
(1649688825.274390) vcan0 166#D0320027
(1649688825.275673) vcan0 158#0000000000000028
(1649688825.275709) vcan0 161#000005500108002B
(1649688825.275715) vcan0 191#010010A141001A
(1649688825.276983) vcan0 133#00000000B6
(1649688825.277025) vcan0 136#0002000000000039
(1649688825.277032) vcan0 13A#0000000000000037
(1649688825.277036) vcan0 13F#000000050000003D
(1649688825.277040) vcan0 164#0000C01AA8000013
(1649688825.277045) vcan0 17C#0000000010000030
(1649688825.277501) vcan0 244#000000018F
(1649688825.278196) vcan0 18E#00007A
(1649688825.278234) vcan0 294#040B0002CF5A000E
(1649688825.278241) vcan0 21E#03E83745220601
(1649688825.279408) vcan0 183#0000000B0000103D
(1649688825.279483) vcan0 143#6B6B00FF
(1649688825.281800) vcan0 095#800007F400000026
(1649688825.281860) vcan0 039#002A
(1649688825.284184) vcan0 166#D0320036
(1649688825.285360) vcan0 158#0000000000000037
(1649688825.285416) vcan0 161#000005500108003A
(1649688825.286550) vcan0 191#010010A1410029
(1649688825.286609) vcan0 133#0000000089
(1649688825.286616) vcan0 136#000200000000000C
(1649688825.286620) vcan0 13A#000000000000000A
(1649688825.286626) vcan0 13F#0000000500000000
(1649688825.287773) vcan0 164#0000C01AA8000022
(1649688825.287819) vcan0 17C#0000000010000003
(1649688825.287825) vcan0 18E#00004D
(1649688825.287830) vcan0 1CF#80050000000F
(1649688825.287834) vcan0 1DC#0200000C
(1649688825.287839) vcan0 320#000003
(1649688825.289055) vcan0 324#7465000000000E0B
(1649688825.289099) vcan0 37C#FD00FD00097F000B
(1649688825.289106) vcan0 183#0000000800001003
(1649688825.290254) vcan0 143#6B6B00C2
(1649688825.292656) vcan0 095#800007F400000035
(1649688825.292699) vcan0 1A4#000000080000002F
(1649688825.292707) vcan0 1AA#7FFF000000006720
(1649688825.292713) vcan0 1B0#000F0000000166
(1649688825.292719) vcan0 1D0#000000000000000A
(1649688825.293217) vcan0 244#00000001A4
(1649688825.294264) vcan0 166#D0320009
(1649688825.295517) vcan0 039#0039
(1649688825.295558) vcan0 158#000000000000000A
(1649688825.295564) vcan0 161#000005500108000D
(1649688825.295569) vcan0 191#010010A1410038
(1649688825.296770) vcan0 133#0000000098
(1649688825.296814) vcan0 136#000200000000001B
(1649688825.296820) vcan0 13A#0000000000000019
(1649688825.296825) vcan0 13F#000000050000001F
(1649688825.296829) vcan0 164#0000C01AA8000031
(1649688825.298061) vcan0 17C#0000000010000012
(1649688825.298109) vcan0 18E#00005C
(1649688825.299319) vcan0 183#0000000D0000101D
(1649688825.299366) vcan0 143#6B6B00D1
(1649688825.301775) vcan0 095#800007F400000008
(1649688825.303693) vcan0 244#000000019A
(1649688825.304489) vcan0 166#D0320018
(1649688825.305629) vcan0 158#0000000000000019
(1649688825.305673) vcan0 161#000005500108001C
(1649688825.305679) vcan0 191#010010A141000B
(1649688825.306808) vcan0 164#0000C01AA9000003
(1649688825.306825) vcan0 133#00000000A7
(1649688825.306830) vcan0 136#000200000000002A
(1649688825.306835) vcan0 13A#0000000000000028
(1649688825.306839) vcan0 13F#000000050000002E
(1649688825.308045) vcan0 17C#0000000010000021
(1649688825.308078) vcan0 18E#00006B
(1649688825.308084) vcan0 1CF#80050000001E
(1649688825.308089) vcan0 1DC#0200001B
(1649688825.308093) vcan0 039#000C
(1649688825.309315) vcan0 183#0000000900001020
(1649688825.309346) vcan0 143#6B6B00E0
(1649688825.311740) vcan0 095#800007F400000017
(1649688825.313023) vcan0 1A4#000000080000003E
(1649688825.313061) vcan0 1AA#7FFF00000000683E
(1649688825.313066) vcan0 1B0#000F0000000175
(1649688825.313072) vcan0 1D0#000000000000000A
(1649688825.314208) vcan0 166#D0320027
(1649688825.315536) vcan0 158#0000000000000028
(1649688825.315572) vcan0 161#000005500108002B
(1649688825.315578) vcan0 191#010010A141001A
(1649688825.316843) vcan0 133#00000000B6
(1649688825.316884) vcan0 136#0002000000000039
(1649688825.316889) vcan0 13A#0000000000000037
(1649688825.316894) vcan0 13F#000000050000003D
(1649688825.316899) vcan0 164#0000C01AA8000013
(1649688825.318265) vcan0 17C#0000000010000030
(1649688825.318330) vcan0 18E#00007A
(1649688825.318339) vcan0 294#040B0002CF5A001D
(1649688825.318345) vcan0 21E#03E83745220610
(1649688825.318351) vcan0 309#0000000000000093
(1649688825.319521) vcan0 183#0000000E0000103A
(1649688825.319537) vcan0 244#00000001B7
(1649688825.319636) vcan0 143#6B6B00FF
(1649688825.321949) vcan0 095#800007F400000026
(1649688825.324403) vcan0 039#001B
(1649688825.324437) vcan0 166#D0320036
(1649688825.325663) vcan0 158#0000000000000037
(1649688825.325695) vcan0 161#000005500108003A
(1649688825.325700) vcan0 191#010010A1410029
(1649688825.326918) vcan0 133#0000000089
(1649688825.326947) vcan0 136#000200000000000C
(1649688825.326953) vcan0 13A#000000000000000A
(1649688825.326958) vcan0 13F#0000000500000000
(1649688825.326962) vcan0 164#0000C01AA8000022
(1649688825.326966) vcan0 17C#0000000010000003
(1649688825.328213) vcan0 18E#00004D
(1649688825.328247) vcan0 1CF#80050000002D
(1649688825.328260) vcan0 1DC#0200002A
(1649688825.329547) vcan0 183#0000000A00001001
(1649688825.329591) vcan0 143#6B6B00C2
(1649688825.332111) vcan0 095#800007F400000035
(1649688825.332166) vcan0 1A4#0000000800000001
(1649688825.332174) vcan0 1AA#7FFF000000006801
(1649688825.333615) vcan0 1B0#000F0000000148
(1649688825.333670) vcan0 1D0#000000000000000A
(1649688825.334867) vcan0 166#D0320009
(1649688825.335396) vcan0 244#00000001A7
(1649688825.336140) vcan0 158#000000000000000A
(1649688825.336183) vcan0 161#000005500108000D
(1649688825.336191) vcan0 191#010010A1410038
(1649688825.336197) vcan0 133#0000000098
(1649688825.336203) vcan0 136#000200000000001B
(1649688825.337553) vcan0 13A#0000000000000019
(1649688825.337611) vcan0 13F#000000050000001F
(1649688825.337619) vcan0 164#0000C01AA8000031
(1649688825.337625) vcan0 17C#0000000010000012
(1649688825.337631) vcan0 18E#00005C
(1649688825.337637) vcan0 039#002A
(1649688825.338784) vcan0 183#0000000700001013
(1649688825.340016) vcan0 143#6B6B00D1
(1649688825.342396) vcan0 095#800007F400000008
(1649688825.344933) vcan0 166#D0320018
(1649688825.346158) vcan0 158#0000000000000019
(1649688825.346201) vcan0 161#000005500108001C
(1649688825.346209) vcan0 191#010010A141000B
(1649688825.346216) vcan0 164#0000C01AA8000004
(1649688825.346222) vcan0 133#00000000A7
(1649688825.346227) vcan0 136#000200000000002A
(1649688825.347572) vcan0 13A#0000000000000028
(1649688825.347627) vcan0 13F#000000050000002E
(1649688825.347636) vcan0 17C#0000000010000021
(1649688825.347641) vcan0 18E#00006B
(1649688825.347647) vcan0 1CF#80050000003C
(1649688825.347653) vcan0 1DC#02000039
(1649688825.348842) vcan0 183#0000000D0000102C
(1649688825.350259) vcan0 143#6B6B00E0
(1649688825.351213) vcan0 244#000000010E
(1649688825.351531) vcan0 095#800007F400000017
(1649688825.352875) vcan0 039#0039
(1649688825.352913) vcan0 1A4#0000000800000010
(1649688825.352921) vcan0 1AA#7FFF000000006810
(1649688825.352927) vcan0 1B0#000F0000000157
(1649688825.352933) vcan0 1D0#000000000000000A
(1649688825.354296) vcan0 166#D0320027
(1649688825.355574) vcan0 158#0000000000000028
(1649688825.355615) vcan0 161#000005500108002B
(1649688825.355622) vcan0 191#010010A141001A
(1649688825.356742) vcan0 133#00000000B6
(1649688825.356763) vcan0 136#0002000000000039
(1649688825.356770) vcan0 13A#0000000000000037
(1649688825.356776) vcan0 13F#000000050000003D
(1649688825.356782) vcan0 164#0000C01AA8000013
(1649688825.357973) vcan0 17C#0000000010000030
(1649688825.358134) vcan0 18E#00007A
(1649688825.358145) vcan0 294#040B0002CF5A002C
(1649688825.358151) vcan0 21E#03E8374522062F
(1649688825.358157) vcan0 305#8017
(1649688825.359474) vcan0 183#000000090000103F
(1649688825.359528) vcan0 143#6B6B00FF
(1649688825.361721) vcan0 244#00000001E5
(1649688825.362057) vcan0 095#800007F400000026
(1649688825.364646) vcan0 166#D0320036
(1649688825.366092) vcan0 158#0000000000000037
(1649688825.366132) vcan0 161#000005500108003A
(1649688825.366139) vcan0 191#010010A1410029
(1649688825.366144) vcan0 039#000C
(1649688825.366148) vcan0 133#0000000089
(1649688825.366153) vcan0 136#000200000000000C
(1649688825.367372) vcan0 13A#000000000000000A
(1649688825.367441) vcan0 13F#0000000500000000
(1649688825.367447) vcan0 164#0000C01AA8000022
(1649688825.367451) vcan0 17C#0000000010000003
(1649688825.367456) vcan0 18E#00004D
(1649688825.367460) vcan0 1CF#80050000000F
(1649688825.368629) vcan0 1DC#0200000C
(1649688825.368673) vcan0 183#0000000600001005
(1649688825.369821) vcan0 143#6B6B00C2
(1649688825.371125) vcan0 333#0000000000001E
(1649688825.372351) vcan0 244#000000014F
(1649688825.372371) vcan0 095#800007F400000035
(1649688825.372400) vcan0 1A4#000000080000002F
(1649688825.372407) vcan0 1AA#7FFF000000006720
(1649688825.372413) vcan0 1B0#000F0000000166
(1649688825.373558) vcan0 1D0#000000000000000A
(1649688825.374803) vcan0 166#D0320009
(1649688825.376095) vcan0 158#000000000000000A
(1649688825.376139) vcan0 161#000005500108000D
(1649688825.376145) vcan0 191#010010A1410038
(1649688825.376150) vcan0 133#0000000098
(1649688825.376154) vcan0 136#000200000000001B
(1649688825.377424) vcan0 13A#0000000000000019
(1649688825.377474) vcan0 13F#000000050000001F
(1649688825.377482) vcan0 164#0000C01AA8000031
(1649688825.377488) vcan0 17C#0000000010000012
(1649688825.377494) vcan0 18E#00005C
(1649688825.379981) vcan0 183#0000000C0000101E
(1649688825.380035) vcan0 143#6B6B00D1
(1649688825.382591) vcan0 095#800007F400000008
(1649688825.383996) vcan0 166#D0320018
(1649688825.385445) vcan0 158#0000000000000019
(1649688825.385516) vcan0 161#000005500108001C
(1649688825.385524) vcan0 191#010090A1410003
(1649688825.386795) vcan0 039#001B
(1649688825.386867) vcan0 133#00000000A7
(1649688825.386875) vcan0 136#000200000000002A
(1649688825.386882) vcan0 13A#0000000000000028
(1649688825.386889) vcan0 13F#000000050000002E
(1649688825.386894) vcan0 164#0000C01AA8000004
(1649688825.388239) vcan0 17C#0000000010000021
(1649688825.388282) vcan0 244#0000000132
(1649688825.388312) vcan0 18E#00006B
(1649688825.388321) vcan0 1CF#80050000001E
(1649688825.388327) vcan0 1DC#0200001B
(1649688825.388333) vcan0 320#000012
(1649688825.388339) vcan0 324#7465000000000E1A
(1649688825.388345) vcan0 37C#FD00FD00097F001A
(1649688825.389568) vcan0 183#0000000900001020
(1649688825.389605) vcan0 143#6B6B00E0
(1649688825.392036) vcan0 095#800007F400000017
(1649688825.392064) vcan0 1A4#000000080000003E
(1649688825.393399) vcan0 1AA#7FFF00000000683E
(1649688825.393424) vcan0 1B0#000F0000000175
(1649688825.393430) vcan0 1D0#000000000000000A
(1649688825.394617) vcan0 166#D0320027
(1649688825.395896) vcan0 158#0000000000000028
(1649688825.395944) vcan0 161#000005500108002B
(1649688825.395950) vcan0 191#010090A1410012
(1649688825.395955) vcan0 133#00000000B6
(1649688825.395959) vcan0 136#0002000000000039
(1649688825.397268) vcan0 13A#0000000000000037
(1649688825.397350) vcan0 13F#000000050000003D
(1649688825.397358) vcan0 164#0000C01AA8000013
(1649688825.397363) vcan0 17C#0000000010000030
(1649688825.397368) vcan0 18E#00007A
(1649688825.397372) vcan0 294#040B0002CF5A003B
(1649688825.398557) vcan0 21E#03E8374522063E
(1649688825.398591) vcan0 039#002A
(1649688825.400015) vcan0 183#0000000E0000103A
(1649688825.400066) vcan0 143#6B6B00FF
(1649688825.402475) vcan0 095#800007F400000026
(1649688825.403948) vcan0 244#00000001DF
(1649688825.404906) vcan0 166#D0320036
(1649688825.406074) vcan0 158#0000000000000037
(1649688825.406094) vcan0 161#000005500108003A
(1649688825.406102) vcan0 191#010090A1410021
(1649688825.406151) vcan0 133#0000000089
(1649688825.406160) vcan0 136#000200000000000C
(1649688825.407310) vcan0 13A#000000000000000A
(1649688825.407344) vcan0 13F#0000000500000000
(1649688825.407350) vcan0 164#0000C01AA8000022
(1649688825.407355) vcan0 17C#0000000010000003
(1649688825.407359) vcan0 18E#00004D
(1649688825.407363) vcan0 1CF#80050000002D
(1649688825.408662) vcan0 1DC#0200002A
(1649688825.408708) vcan0 183#0000000A00001001
(1649688825.409936) vcan0 143#6B6B00C2
(1649688825.412573) vcan0 095#800007F400000035
(1649688825.412628) vcan0 1A4#0000000800000001
(1649688825.412637) vcan0 1AA#7FFF000000006801
(1649688825.412643) vcan0 1B0#000F0000000148
(1649688825.412648) vcan0 1D0#000000000000000A
(1649688825.414086) vcan0 039#0039
(1649688825.414117) vcan0 166#D0320009
(1649688825.414705) vcan0 244#0000000156
(1649688825.415449) vcan0 158#000000000000000A
(1649688825.415497) vcan0 161#000005500108000D
(1649688825.415505) vcan0 191#010090A1410030
(1649688825.416739) vcan0 133#0000000098
(1649688825.416754) vcan0 136#000200000000001B
(1649688825.416760) vcan0 13A#0000000000000019
(1649688825.416764) vcan0 13F#000000050000001F
(1649688825.416769) vcan0 164#0000C01AA8000031
(1649688825.418151) vcan0 17C#0000000010000012
(1649688825.418176) vcan0 18E#00005C
(1649688825.418181) vcan0 309#00000000000000A2
(1649688825.419518) vcan0 183#0000000F0000101B
(1649688825.419552) vcan0 143#6B6B00D1
(1649688825.422228) vcan0 095#800007F400000008
(1649688825.424622) vcan0 166#D0320018
(1649688825.425370) vcan0 244#00000001AA
(1649688825.425781) vcan0 158#0000000000000019
(1649688825.425802) vcan0 161#000005500108001C
(1649688825.425810) vcan0 191#010090A1410003
(1649688825.425815) vcan0 164#0000C01AA8000004
(1649688825.427089) vcan0 133#00000000A7
(1649688825.427108) vcan0 136#000200000000002A
(1649688825.427113) vcan0 13A#0000000000000028
(1649688825.427118) vcan0 13F#000000050000002E
(1649688825.427123) vcan0 17C#0000000010000021
(1649688825.427127) vcan0 18E#00006B
(1649688825.428334) vcan0 039#000C
(1649688825.428361) vcan0 1CF#80050000003C
(1649688825.428366) vcan0 1DC#02000039
(1649688825.428370) vcan0 183#0000000B0000102E
(1649688825.429723) vcan0 143#6B6B00E0
(1649688825.432357) vcan0 095#800007F400000017
(1649688825.432392) vcan0 1A4#0000000800000010
(1649688825.432399) vcan0 1AA#7FFF000000006810
(1649688825.432405) vcan0 1B0#000F0000000157
(1649688825.433684) vcan0 1D0#000000000000000A
(1649688825.434980) vcan0 166#D0320027
(1649688825.436182) vcan0 158#0000000000000028
(1649688825.436208) vcan0 161#000005500108002B
(1649688825.436214) vcan0 191#010090A1410012
(1649688825.436220) vcan0 133#00000000B6
(1649688825.436226) vcan0 136#0002000000000039
(1649688825.436232) vcan0 13A#0000000000000037
(1649688825.437511) vcan0 13F#000000050000003D
(1649688825.437559) vcan0 164#0000C01AA8000013
(1649688825.437566) vcan0 17C#0000000010000030
(1649688825.437572) vcan0 18E#00007A
(1649688825.437579) vcan0 294#040B0002CF5A000E
(1649688825.437585) vcan0 21E#03E83745220601
(1649688825.439904) vcan0 183#0000000800001030
(1649688825.439922) vcan0 143#6B6B00FF
(1649688825.441074) vcan0 039#001B
(1649688825.441248) vcan0 244#00000001DB
(1649688825.442227) vcan0 095#800007F400000026
(1649688825.444590) vcan0 166#D0320036
(1649688825.445785) vcan0 158#0000000000000037
(1649688825.445819) vcan0 161#000005500108003A
(1649688825.445826) vcan0 191#010090A1410021
(1649688825.445830) vcan0 133#0000000089
(1649688825.447025) vcan0 136#000200000000000C
(1649688825.447066) vcan0 13A#000000000000000A
(1649688825.447072) vcan0 13F#0000000500000000
(1649688825.447077) vcan0 164#0000C01AA8000022
(1649688825.447081) vcan0 17C#0000000010000003
(1649688825.447086) vcan0 18E#00004D
(1649688825.448253) vcan0 1CF#80050000000F
(1649688825.448288) vcan0 1DC#0200000C
(1649688825.449451) vcan0 183#0000000600001005
(1649688825.449503) vcan0 143#6B6B00C2
(1649688825.451782) vcan0 244#000000018D
(1649688825.451859) vcan0 095#800007F400000035
(1649688825.451878) vcan0 1A4#000000080000002F
(1649688825.453054) vcan0 1AA#7FFF000000006720
(1649688825.453099) vcan0 1B0#000F0000000166
(1649688825.453105) vcan0 1D0#000000000000000A
(1649688825.454273) vcan0 166#D0320009
(1649688825.455548) vcan0 158#000000000000000A
(1649688825.455587) vcan0 161#000005500108000D
(1649688825.455593) vcan0 191#010090A1410030
(1649688825.456828) vcan0 133#0000000098
(1649688825.456868) vcan0 136#000200000000001B
(1649688825.456873) vcan0 039#002A
(1649688825.456878) vcan0 13A#0000000000000019
(1649688825.456882) vcan0 13F#000000050000001F
(1649688825.456887) vcan0 164#0000C01AA8000031
(1649688825.458052) vcan0 17C#0000000010000012
(1649688825.458081) vcan0 18E#00005C
(1649688825.459390) vcan0 183#0000000400001016
(1649688825.459446) vcan0 143#6B6B00D1
(1649688825.461928) vcan0 095#800007F400000008
(1649688825.463277) vcan0 305#8026
(1649688825.464622) vcan0 166#D0320018
(1649688825.466134) vcan0 158#0000000000000019
(1649688825.466172) vcan0 161#000005500108001C
(1649688825.466179) vcan0 191#010090A1410003
(1649688825.466185) vcan0 133#00000000A7
(1649688825.466191) vcan0 136#000200000000002A
(1649688825.467464) vcan0 244#000000013A
(1649688825.467522) vcan0 188#00000000
(1649688825.467542) vcan0 13A#0000000000000028
(1649688825.467553) vcan0 13F#000000050000002E
(1649688825.467560) vcan0 164#0000C01AA8000004
(1649688825.467566) vcan0 17C#0000000010000021
(1649688825.467571) vcan0 18E#00006B
(1649688825.467578) vcan0 1CF#80050000001E
(1649688825.467584) vcan0 1DC#0200001B
(1649688825.468842) vcan0 183#0000000300001026
(1649688825.470024) vcan0 143#6B6B00E0
(1649688825.470059) vcan0 039#0039
(1649688825.470065) vcan0 333#0000000000002D
(1649688825.472639) vcan0 095#800007F400000017
(1649688825.472715) vcan0 1A4#000000080000003E
(1649688825.472722) vcan0 1AA#7FFF00000000683E
(1649688825.472737) vcan0 1B0#000F0000000175
(1649688825.472744) vcan0 1D0#000000000000000A
(1649688825.473918) vcan0 166#D0320027
(1649688825.475169) vcan0 158#0000000000000028
(1649688825.476502) vcan0 161#000005500108002B
(1649688825.476559) vcan0 191#010090A1410012
(1649688825.476567) vcan0 133#00000000B6
(1649688825.476573) vcan0 136#0002000000000039
(1649688825.476579) vcan0 13A#0000000000000037
(1649688825.476585) vcan0 13F#000000050000003D
(1649688825.477909) vcan0 164#0000C01AA8000013
(1649688825.477965) vcan0 17C#0000000010000030
(1649688825.477972) vcan0 18E#00007A
(1649688825.477978) vcan0 294#040B0002CF5A001D
(1649688825.477984) vcan0 21E#03E83745220610
(1649688825.479259) vcan0 183#0000000A0000103E
(1649688825.479320) vcan0 143#6B6B00FF
(1649688825.481975) vcan0 095#800007F400000026
(1649688825.483184) vcan0 244#0000000171
(1649688825.484367) vcan0 166#D0320036
(1649688825.485709) vcan0 158#0000000000000037
(1649688825.485762) vcan0 161#000005500108003A
(1649688825.485769) vcan0 191#010090A1410021
(1649688825.485774) vcan0 133#0000000089
(1649688825.486999) vcan0 136#000200000000000C
(1649688825.487044) vcan0 13A#000000000000000A
(1649688825.487050) vcan0 13F#0000000500000000
(1649688825.487055) vcan0 164#0000C01AA8000022
(1649688825.487060) vcan0 17C#0000000010000003
(1649688825.488385) vcan0 18E#00004D
(1649688825.488447) vcan0 1CF#80050000002D
(1649688825.488455) vcan0 1DC#0200002A
(1649688825.488461) vcan0 320#000021
(1649688825.488466) vcan0 324#7465000000000E29
(1649688825.488472) vcan0 37C#FD00FD00097F0029
(1649688825.488479) vcan0 40C#014A484D46413325
(1649688825.489641) vcan0 183#0000000700001004
(1649688825.489710) vcan0 454#23EF27
(1649688825.489719) vcan0 143#6B6B00C2
(1649688825.492292) vcan0 095#800007F400000035
(1649688825.492365) vcan0 039#000C
(1649688825.492373) vcan0 1A4#0000000800000001
(1649688825.492379) vcan0 1AA#7FFF000000006801
(1649688825.492387) vcan0 1B0#000F0000000148
(1649688825.493704) vcan0 244#00000001DD
(1649688825.493707) vcan0 1D0#000000000000000A
(1649688825.494897) vcan0 166#D0320009
(1649688825.496143) vcan0 158#000000000000000A
(1649688825.496186) vcan0 161#000005500108000D
(1649688825.496192) vcan0 191#010090A1410030
(1649688825.496196) vcan0 133#0000000098
(1649688825.496201) vcan0 136#000200000000001B
(1649688825.496206) vcan0 13A#0000000000000019
(1649688825.497429) vcan0 13F#000000050000001F
(1649688825.497473) vcan0 164#0000C01AA8000031
(1649688825.497479) vcan0 17C#0000000010000012
(1649688825.497484) vcan0 18E#00005C
(1649688825.499915) vcan0 183#0000000D0000101D
(1649688825.499957) vcan0 143#6B6B00D1
(1649688825.502423) vcan0 095#800007F400000008
(1649688825.504854) vcan0 166#D0320018
(1649688825.506132) vcan0 158#0000000000000019
(1649688825.506179) vcan0 161#000005500108001C
(1649688825.506185) vcan0 191#010090A1410003
(1649688825.506190) vcan0 133#00000000A7
(1649688825.506195) vcan0 136#000200000000002A
(1649688825.506199) vcan0 13A#0000000000000028
(1649688825.507360) vcan0 13F#000000050000002E
(1649688825.507402) vcan0 164#0000C01AA8000004
(1649688825.507408) vcan0 17C#0000000010000021
(1649688825.507412) vcan0 18E#00006B
(1649688825.507417) vcan0 1CF#80050000003C
(1649688825.508669) vcan0 1DC#02000039
(1649688825.508712) vcan0 183#0000001100001027
(1649688825.509299) vcan0 244#0000000138
(1649688825.509856) vcan0 143#6B6B00E0
(1649688825.511168) vcan0 039#001B
(1649688825.512456) vcan0 095#800007F400000017
(1649688825.512506) vcan0 1A4#0000000800000010
(1649688825.512512) vcan0 1AA#7FFF000000006810
(1649688825.512517) vcan0 1B0#000F0000000157
(1649688825.512521) vcan0 1D0#000000000000000A
(1649688825.514907) vcan0 166#D0320027
(1649688825.516231) vcan0 158#0000000000000028
(1649688825.516290) vcan0 161#000005500108002B
(1649688825.516296) vcan0 191#010090A1410012
(1649688825.516301) vcan0 133#00000000B6
(1649688825.516306) vcan0 136#0002000000000039
(1649688825.516310) vcan0 13A#0000000000000037
(1649688825.517542) vcan0 13F#000000050000003D
(1649688825.517597) vcan0 164#0000C01AA8000013
(1649688825.517603) vcan0 17C#0000000010000030
(1649688825.517607) vcan0 18E#00007A
(1649688825.517612) vcan0 294#040B0002CF5A002C
(1649688825.517617) vcan0 21E#03E8374522062F
(1649688825.518854) vcan0 309#00000000000000B1
(1649688825.518914) vcan0 428#01040000521C3E
(1649688825.518921) vcan0 405#0000040000000038
(1649688825.518926) vcan0 183#0000000C0000103C
(1649688825.520114) vcan0 143#6B6B00FF
(1649688825.522621) vcan0 095#800007F400000026
(1649688825.523944) vcan0 166#D0320036
(1649688825.524978) vcan0 244#000000013A
(1649688825.525238) vcan0 039#002A
(1649688825.525268) vcan0 158#0000000000000037
(1649688825.526428) vcan0 161#000005500108003A
(1649688825.526474) vcan0 191#010090A1410021
(1649688825.526480) vcan0 133#0000000089
(1649688825.526485) vcan0 136#000200000000000C
(1649688825.526490) vcan0 13A#000000000000000A
(1649688825.526494) vcan0 13F#0000000500000000
(1649688825.527708) vcan0 164#0000C01AA8000022
(1649688825.527764) vcan0 17C#0000000010000003
(1649688825.527772) vcan0 18E#00004D
(1649688825.527778) vcan0 1CF#80050000000F
(1649688825.527793) vcan0 1DC#0200000C
(1649688825.528985) vcan0 183#000000100000100A
(1649688825.530255) vcan0 143#6B6B00C2
(1649688825.531581) vcan0 095#800007F400000035
(1649688825.533055) vcan0 1A4#000000080000002F
(1649688825.533111) vcan0 1AA#7FFF000000006720
(1649688825.533119) vcan0 1B0#000F0000000166
(1649688825.533126) vcan0 1D0#000000000000000A
(1649688825.534280) vcan0 166#D0320009
(1649688825.535582) vcan0 158#000000000000000A
(1649688825.535584) vcan0 244#000000019D
(1649688825.535650) vcan0 161#000005500108000D
(1649688825.535658) vcan0 191#010090A1410030
(1649688825.536845) vcan0 133#0000000098
(1649688825.536878) vcan0 136#000200000000001B
(1649688825.536884) vcan0 13A#0000000000000019
(1649688825.536888) vcan0 13F#000000050000001F
(1649688825.536893) vcan0 164#0000C01AA9000030
(1649688825.538039) vcan0 17C#0000000010000012
(1649688825.538084) vcan0 18E#00005C
(1649688825.539304) vcan0 039#0039
(1649688825.539346) vcan0 183#0000000C0000101E
(1649688825.539352) vcan0 143#6B6B00D1
(1649688825.541726) vcan0 095#800007F400000008
(1649688825.544311) vcan0 166#D0320018
(1649688825.545548) vcan0 158#0000000000000019
(1649688825.545608) vcan0 161#000005500108001C
(1649688825.545616) vcan0 191#010090A1410003
(1649688825.546850) vcan0 133#00000000A7
(1649688825.546905) vcan0 136#000200000000002A
(1649688825.546913) vcan0 13A#0000000000000028
(1649688825.546919) vcan0 13F#000000050000002E
(1649688825.546925) vcan0 164#0000C01AA8000004
(1649688825.546931) vcan0 17C#0000000010000021
(1649688825.548221) vcan0 18E#00006B
(1649688825.548275) vcan0 1CF#80050000001E
(1649688825.548283) vcan0 1DC#0200001B
(1649688825.549607) vcan0 183#0000001000001028
(1649688825.549663) vcan0 143#6B6B00E0
(1649688825.551276) vcan0 244#00000001D7
(1649688825.552019) vcan0 095#800007F400000017
(1649688825.552034) vcan0 1A4#000000080000003E
(1649688825.553183) vcan0 1AA#7FFF00000000683E
(1649688825.553245) vcan0 1B0#000F0000000175
(1649688825.553253) vcan0 1D0#000000000000000A
(1649688825.554405) vcan0 039#000C
(1649688825.554462) vcan0 166#D0320027
(1649688825.555594) vcan0 158#0000000000000028
(1649688825.555649) vcan0 161#000005500108002B
(1649688825.555657) vcan0 191#010090A1410012
(1649688825.556836) vcan0 133#00000000B6
(1649688825.556891) vcan0 136#0002000000000039
(1649688825.556899) vcan0 13A#0000000000000037
(1649688825.556905) vcan0 13F#000000050000003D
(1649688825.556911) vcan0 164#0000C01AA8000013
(1649688825.558156) vcan0 17C#0000000010000030
(1649688825.558368) vcan0 18E#00007A
(1649688825.558408) vcan0 294#040B0002CF5A003B
(1649688825.558414) vcan0 21E#03E8374522063E
(1649688825.559756) vcan0 183#0000001300001034
(1649688825.559828) vcan0 143#6B6B00FF
(1649688825.562245) vcan0 095#800007F800000022
(1649688825.564950) vcan0 166#D0320036
(1649688825.566178) vcan0 158#0000000000000037
(1649688825.566254) vcan0 161#000005500108003A
(1649688825.566262) vcan0 191#010090A1410021
(1649688825.566268) vcan0 133#0000000089
(1649688825.566275) vcan0 136#000200000000000C
(1649688825.566280) vcan0 13A#000000000000000A
(1649688825.567065) vcan0 244#0000000113
(1649688825.567466) vcan0 13F#0000000500000000
(1649688825.567509) vcan0 164#0000C01AA8000022
(1649688825.567517) vcan0 17C#0000000010000003
(1649688825.567523) vcan0 18E#00004D
(1649688825.567529) vcan0 1CF#80050000002D
(1649688825.567534) vcan0 1DC#0200002A
(1649688825.568893) vcan0 305#8035
(1649688825.568924) vcan0 183#0000000E0000100D
(1649688825.570175) vcan0 143#6B6B00C2
(1649688825.570209) vcan0 333#0000000000003C
(1649688825.571495) vcan0 095#800007F800000031
(1649688825.572686) vcan0 1A4#0000000800000001
(1649688825.572729) vcan0 1AA#7FFF000000006801
(1649688825.572737) vcan0 1B0#000F0000000148
(1649688825.572743) vcan0 1D0#000000000000000A
(1649688825.573909) vcan0 039#001B
(1649688825.573950) vcan0 166#D0320009
(1649688825.575161) vcan0 158#000000000000000A
(1649688825.576430) vcan0 161#000005500108000D
(1649688825.576470) vcan0 191#010090A1410030
(1649688825.576477) vcan0 133#0000000098
(1649688825.576483) vcan0 136#000200000000001B
(1649688825.576489) vcan0 13A#0000000000000019
(1649688825.576494) vcan0 13F#000000050000001F
(1649688825.577637) vcan0 244#000000011D
(1649688825.577766) vcan0 164#0000C01AA8000031
(1649688825.577782) vcan0 17C#0000000010000012
(1649688825.577789) vcan0 18E#00005C
(1649688825.578998) vcan0 183#0000000A00001010
(1649688825.580392) vcan0 143#6B6B00D1
(1649688825.581784) vcan0 095#800007F800000004
(1649688825.584180) vcan0 166#D0320018
(1649688825.585544) vcan0 158#0000000000000019
(1649688825.585590) vcan0 161#000005500108001C
(1649688825.585596) vcan0 191#010090A1410003
(1649688825.586823) vcan0 133#00000000A7
(1649688825.586871) vcan0 136#000200000000002A
(1649688825.586877) vcan0 13A#0000000000000028
(1649688825.586882) vcan0 13F#000000050000002E
(1649688825.586886) vcan0 164#0000C01AA8000004
(1649688825.586891) vcan0 039#002A
(1649688825.588252) vcan0 244#000000015C
(1649688825.588279) vcan0 17C#0000000010000021
(1649688825.588322) vcan0 18E#00006B
(1649688825.588329) vcan0 1CF#80050000003C
(1649688825.588335) vcan0 1DC#02000039
(1649688825.588341) vcan0 320#000030
(1649688825.588347) vcan0 324#7465000000000E38
(1649688825.588353) vcan0 37C#FD00FD00097F0038
(1649688825.589524) vcan0 183#0000000700001022
(1649688825.589557) vcan0 143#6B6B00E0
(1649688825.591820) vcan0 095#800007F800000013
(1649688825.591860) vcan0 1A4#0000000800000010
(1649688825.593274) vcan0 1AA#7FFF000000006810
(1649688825.593320) vcan0 1B0#000F0000000157
(1649688825.593327) vcan0 1D0#000000000000000A
(1649688825.594511) vcan0 166#D0320027
(1649688825.595870) vcan0 158#0000000000000028
(1649688825.595928) vcan0 161#000005500108002B
(1649688825.595937) vcan0 191#010090A1410012
(1649688825.595943) vcan0 133#00000000B6
(1649688825.595950) vcan0 136#0002000000000039
(1649688825.597301) vcan0 13A#0000000000000037
(1649688825.597363) vcan0 13F#000000050000003D
(1649688825.597371) vcan0 164#0000C01AA8000013
(1649688825.597377) vcan0 17C#0000000010000030
(1649688825.597383) vcan0 18E#00007A
(1649688825.597389) vcan0 294#040B0002CF5A000E
(1649688825.598595) vcan0 21E#03E83745220601
(1649688825.600002) vcan0 183#0000000500001033
(1649688825.600064) vcan0 143#6B6B00FF
(1649688825.601347) vcan0 039#0039
(1649688825.601386) vcan0 095#800007F800000022
(1649688825.603944) vcan0 166#D0320036
(1649688825.603991) vcan0 244#00000001F1
(1649688825.605175) vcan0 158#0000000000000037
(1649688825.606369) vcan0 161#000005500108003A
(1649688825.606403) vcan0 191#010090A1410021
(1649688825.606409) vcan0 164#0000C01AA8000022
(1649688825.606414) vcan0 133#0000000089
(1649688825.606418) vcan0 136#000200000000000C
(1649688825.606422) vcan0 13A#000000000000000A
(1649688825.607651) vcan0 13F#0000000500000000
(1649688825.607670) vcan0 17C#0000000010000003
(1649688825.607675) vcan0 18E#00004D
(1649688825.607680) vcan0 1CF#80050000000F
(1649688825.607684) vcan0 1DC#0200000C
(1649688825.608994) vcan0 183#0000000B00001000
(1649688825.610172) vcan0 143#6B6B00C2
(1649688825.611503) vcan0 095#800007F800000031
(1649688825.612767) vcan0 1A4#000000080000002F
(1649688825.612811) vcan0 1AA#7FFF000000006720
(1649688825.612818) vcan0 1B0#000F0000000166
(1649688825.612824) vcan0 1D0#000000000000000A
(1649688825.614130) vcan0 166#D0320009
(1649688825.614360) vcan0 244#0000000198
(1649688825.615433) vcan0 158#000000000000000A
(1649688825.615497) vcan0 161#000005500108000D
(1649688825.615533) vcan0 191#010090A1410030
(1649688825.616791) vcan0 039#000C
(1649688825.616821) vcan0 133#0000000098
(1649688825.616827) vcan0 136#000200000000001B
(1649688825.616831) vcan0 13A#0000000000000019
(1649688825.616836) vcan0 13F#000000050000001F
(1649688825.616840) vcan0 164#0000C01AA8000031
(1649688825.618098) vcan0 17C#0000000010000012
(1649688825.618131) vcan0 18E#00005C
(1649688825.618137) vcan0 309#0000000000000084
(1649688825.619384) vcan0 183#0000000800001012
(1649688825.619418) vcan0 143#6B6B00D1
(1649688825.621862) vcan0 095#800007F800000004
(1649688825.624491) vcan0 166#D0320018
(1649688825.625830) vcan0 158#0000000000000019
(1649688825.625878) vcan0 161#000005500108001C
(1649688825.625884) vcan0 191#010090A1410003
(1649688825.625890) vcan0 133#00000000A7
(1649688825.627131) vcan0 136#000200000000002A
(1649688825.627169) vcan0 13A#0000000000000028
(1649688825.627174) vcan0 13F#000000050000002E
(1649688825.627179) vcan0 164#0000C01AA8000004
(1649688825.627184) vcan0 17C#0000000010000021
(1649688825.627189) vcan0 18E#00006B
(1649688825.628510) vcan0 1CF#80050000001E
(1649688825.628560) vcan0 1DC#0200001B
(1649688825.628568) vcan0 183#0000000D0000102C
(1649688825.629880) vcan0 143#6B6B00E0
(1649688825.629951) vcan0 039#001B
(1649688825.630045) vcan0 244#000000012D
(1649688825.632456) vcan0 095#800007F800000013
(1649688825.632499) vcan0 1A4#000000080000003E
(1649688825.632505) vcan0 1AA#7FFF00000000683E
(1649688825.632510) vcan0 1B0#000F0000000175
(1649688825.633701) vcan0 1D0#000000000000000A
(1649688825.634987) vcan0 166#D0320027
(1649688825.635053) vcan0 158#0000000000000028
(1649688825.636240) vcan0 161#000005500108002B
(1649688825.636274) vcan0 191#010090A1410012
(1649688825.636337) vcan0 133#00000000B6
(1649688825.636346) vcan0 136#0002000000000039
(1649688825.636351) vcan0 13A#0000000000000037
(1649688825.637578) vcan0 13F#000000050000003D
(1649688825.637611) vcan0 164#0000C01AA8000013
(1649688825.637617) vcan0 17C#0000000010000030
(1649688825.637622) vcan0 18E#00007A
(1649688825.637627) vcan0 294#040B0002CF5A001D
(1649688825.637631) vcan0 21E#03E83745220610
(1649688825.639980) vcan0 183#000000090000103F
(1649688825.640018) vcan0 143#6B6B00FF
(1649688825.640491) vcan0 244#00000001DE
(1649688825.641350) vcan0 095#800007F800000022
(1649688825.644896) vcan0 166#D0320036
(1649688825.644942) vcan0 039#002A
(1649688825.646101) vcan0 158#0000000000000037
(1649688825.646136) vcan0 161#000005500108003A
(1649688825.646142) vcan0 191#010090A1410021
(1649688825.646146) vcan0 164#0000C01AA8000022
(1649688825.646150) vcan0 133#0000000089
(1649688825.647295) vcan0 136#000200000000000C
(1649688825.647332) vcan0 13A#000000000000000A
(1649688825.647337) vcan0 13F#0000000500000000
(1649688825.647341) vcan0 17C#0000000010000003
(1649688825.647345) vcan0 18E#00004D
(1649688825.647349) vcan0 1CF#80050000002D
(1649688825.648565) vcan0 1DC#0200002A
(1649688825.648601) vcan0 183#0000000600001005
(1649688825.649787) vcan0 143#6B6B00C2
(1649688825.652170) vcan0 095#800007F800000031
(1649688825.652208) vcan0 1A4#0000000800000001
(1649688825.652213) vcan0 1AA#7FFF000000006801
(1649688825.652217) vcan0 1B0#000F0000000148
(1649688825.653415) vcan0 1D0#000000000000000A
(1649688825.654602) vcan0 166#D0320009
(1649688825.655745) vcan0 158#000000000000000A
(1649688825.655779) vcan0 161#000005500108000D
(1649688825.655784) vcan0 191#010090A1410030
(1649688825.655787) vcan0 133#0000000098
(1649688825.655888) vcan0 244#0000000146
(1649688825.656935) vcan0 136#000200000000001B
(1649688825.656959) vcan0 13A#0000000000000019
(1649688825.656965) vcan0 13F#000000050000001F
(1649688825.656969) vcan0 164#0000C01AA8000031
(1649688825.656973) vcan0 17C#0000000010000012
(1649688825.658190) vcan0 18E#00005C
(1649688825.659389) vcan0 183#0000000C0000101E
(1649688825.659433) vcan0 143#6B6B00D1
(1649688825.660672) vcan0 039#0039
(1649688825.661962) vcan0 095#800007F800000004
(1649688825.664733) vcan0 166#D0320018
(1649688825.666156) vcan0 158#0000000000000019
(1649688825.666239) vcan0 161#000005500108001C
(1649688825.666244) vcan0 191#010090A1410003
(1649688825.666248) vcan0 133#00000000A7
(1649688825.666252) vcan0 136#000200000000002A
(1649688825.666256) vcan0 13A#0000000000000028
(1649688825.666318) vcan0 244#0000000133
(1649688825.667400) vcan0 13F#000000050000002E
(1649688825.667433) vcan0 164#0000C01AA8000004
(1649688825.667438) vcan0 17C#0000000010000021
(1649688825.667442) vcan0 18E#00006B
(1649688825.667447) vcan0 1CF#80050000003C
(1649688825.667450) vcan0 1DC#02000039
(1649688825.668576) vcan0 183#0000000900001020
(1649688825.669832) vcan0 143#6B6B00E0
(1649688825.671080) vcan0 333#0000000000000F
(1649688825.672308) vcan0 095#800007F800000013
(1649688825.672347) vcan0 1A4#0000000800000010
(1649688825.672352) vcan0 1AA#7FFF000000006711
(1649688825.672357) vcan0 1B0#000F0000000157
(1649688825.673529) vcan0 1D0#000000000000000A
(1649688825.673578) vcan0 305#8008
(1649688825.674750) vcan0 166#D0320027
(1649688825.675914) vcan0 158#0000000000000028
(1649688825.675956) vcan0 161#000005500108002B
(1649688825.675971) vcan0 191#010090A1410012
(1649688825.676005) vcan0 133#00000000B6
(1649688825.676016) vcan0 136#0002000000000039
(1649688825.677189) vcan0 13A#0000000000000037
(1649688825.677231) vcan0 13F#000000050000003D
(1649688825.677237) vcan0 164#0000C01AA8000013
(1649688825.677242) vcan0 17C#0000000010000030
(1649688825.677246) vcan0 18E#00007A
(1649688825.678414) vcan0 294#040B0002CF5A002C
(1649688825.678469) vcan0 21E#03E8374522062F
(1649688825.679720) vcan0 183#0000000E0000103A
(1649688825.679760) vcan0 143#6B6B00FF
(1649688825.679775) vcan0 039#000C
(1649688825.682095) vcan0 244#00000001C1
(1649688825.682121) vcan0 095#800007F800000022
(1649688825.684470) vcan0 166#D0320036
(1649688825.685669) vcan0 158#0000000000000037
(1649688825.685711) vcan0 161#000005500108003A
(1649688825.685717) vcan0 191#010010A1410029
(1649688825.685722) vcan0 133#0000000089
(1649688825.686928) vcan0 136#000200000000000C
(1649688825.686967) vcan0 13A#000000000000000A
(1649688825.686972) vcan0 13F#0000000500000000
(1649688825.686977) vcan0 164#0000C01AA8000022
(1649688825.686981) vcan0 17C#0000000010000003
(1649688825.688219) vcan0 18E#00004D
(1649688825.688260) vcan0 1CF#80050000000F
(1649688825.688266) vcan0 1DC#0200000C
(1649688825.688271) vcan0 320#000003
(1649688825.688275) vcan0 324#7465000000000E0B
(1649688825.688280) vcan0 37C#FD00FD00097F000B
(1649688825.689585) vcan0 183#0000001200001008
(1649688825.689643) vcan0 143#6B6B00C2
(1649688825.691971) vcan0 095#800007F800000031
(1649688825.692058) vcan0 1A4#000000080000002F
(1649688825.692068) vcan0 039#001B
(1649688825.692503) vcan0 244#00000001F1
(1649688825.693335) vcan0 1AA#7FFF000000006720
(1649688825.693378) vcan0 1B0#000F0000000166
(1649688825.693384) vcan0 1D0#000000000000000A
(1649688825.694615) vcan0 166#D0320009
(1649688825.695837) vcan0 158#000000000000000A
(1649688825.695879) vcan0 161#000005500108000D
(1649688825.695886) vcan0 191#010010A1410038
(1649688825.695890) vcan0 133#0000000098
(1649688825.697164) vcan0 136#000200000000001B
(1649688825.697214) vcan0 13A#0000000000000019
(1649688825.697222) vcan0 13F#000000050000001F
(1649688825.697229) vcan0 164#0000C01AA8000031
(1649688825.697235) vcan0 17C#0000000010000012
(1649688825.697240) vcan0 18E#00005C
(1649688825.699729) vcan0 183#0000000D0000101D
(1649688825.699795) vcan0 143#6B6B00D1
(1649688825.702441) vcan0 095#800007F800000004
(1649688825.704940) vcan0 166#D0320018
(1649688825.706168) vcan0 158#0000000000000019
(1649688825.706232) vcan0 161#000005500108001C
(1649688825.706241) vcan0 191#010010A141000B
(1649688825.706247) vcan0 164#0000C01AA8000004
(1649688825.706253) vcan0 133#00000000A7
(1649688825.706260) vcan0 136#000200000000002A
(1649688825.707396) vcan0 13A#0000000000000028
(1649688825.707453) vcan0 13F#000000050000002E
(1649688825.707533) vcan0 039#002A
(1649688825.707542) vcan0 17C#0000000010000021
(1649688825.707549) vcan0 18E#00006B
(1649688825.707555) vcan0 1CF#80050000001E
(1649688825.708193) vcan0 244#0000000175
(1649688825.708733) vcan0 1DC#0200001B
(1649688825.708761) vcan0 183#0000000900001020
(1649688825.709898) vcan0 143#6B6B00E0
(1649688825.712284) vcan0 095#800007F400000017
(1649688825.712318) vcan0 1A4#000000080000003E
(1649688825.712324) vcan0 1AA#7FFF00000000683E
(1649688825.712328) vcan0 1B0#000F0000000175
(1649688825.713480) vcan0 1D0#000000000000000A
(1649688825.714642) vcan0 166#D0320027
(1649688825.715984) vcan0 158#0000000000000028
(1649688825.716045) vcan0 161#000005500108002B
(1649688825.716051) vcan0 191#010010A141001A
(1649688825.716057) vcan0 133#00000000B6
(1649688825.716061) vcan0 136#0002000000000039
(1649688825.717194) vcan0 13A#0000000000000037
(1649688825.717247) vcan0 13F#000000050000003D
(1649688825.717254) vcan0 164#0000C01AA8000013
(1649688825.717259) vcan0 17C#0000000010000030
(1649688825.717263) vcan0 18E#00007A
(1649688825.718460) vcan0 294#040B0002CF5A003B
(1649688825.718513) vcan0 21E#03E8374522063E
(1649688825.718520) vcan0 309#0000000000000093
(1649688825.718653) vcan0 244#0000000177
(1649688825.719599) vcan0 183#0000000600001032
(1649688825.719632) vcan0 143#6B6B00FF
(1649688825.720867) vcan0 039#0039
(1649688825.722129) vcan0 095#800007F400000026
(1649688825.724491) vcan0 166#D0320036
(1649688825.725816) vcan0 158#0000000000000037
(1649688825.725870) vcan0 161#000005500108003A
(1649688825.725877) vcan0 191#010010A1410029
(1649688825.725883) vcan0 133#0000000089
(1649688825.727130) vcan0 136#000200000000000C
(1649688825.727184) vcan0 13A#000000000000000A
(1649688825.727192) vcan0 13F#0000000500000000
(1649688825.727198) vcan0 164#0000C01AA8000022
(1649688825.727204) vcan0 17C#0000000010000003
(1649688825.727209) vcan0 18E#00004D
(1649688825.728466) vcan0 1CF#80050000002D
(1649688825.728518) vcan0 1DC#0200002A
(1649688825.728525) vcan0 183#0000000C0000100F
(1649688825.729102) vcan0 244#0000000144
(1649688825.729687) vcan0 143#6B6B00C2
(1649688825.732202) vcan0 095#800007F400000035
(1649688825.732291) vcan0 1A4#0000000800000001
(1649688825.732300) vcan0 1AA#7FFF000000006801
(1649688825.732306) vcan0 1B0#000F0000000148
(1649688825.733494) vcan0 1D0#000000000000000A
(1649688825.734715) vcan0 166#D0320009
(1649688825.734760) vcan0 039#000C
(1649688825.735969) vcan0 158#000000000000000A
(1649688825.736022) vcan0 161#000005500108000D
(1649688825.736029) vcan0 191#010010A1410038
(1649688825.736034) vcan0 133#0000000098
(1649688825.736038) vcan0 136#000200000000001B
(1649688825.737251) vcan0 13A#0000000000000019
(1649688825.737298) vcan0 13F#000000050000001F
(1649688825.737304) vcan0 164#0000C01AA8000031
(1649688825.737309) vcan0 17C#0000000010000012
(1649688825.737313) vcan0 18E#00005C
(1649688825.739579) vcan0 244#0000000137
(1649688825.739620) vcan0 183#0000001000001019
(1649688825.739631) vcan0 143#6B6B00D1
(1649688825.742067) vcan0 095#800007F400000008
(1649688825.744436) vcan0 166#D0320018
(1649688825.745661) vcan0 158#0000000000000019
(1649688825.745687) vcan0 161#000005500108001C
(1649688825.745693) vcan0 191#010010A141000B
(1649688825.745697) vcan0 133#00000000A7
(1649688825.747047) vcan0 136#000200000000002A
(1649688825.747109) vcan0 13A#0000000000000028
(1649688825.747115) vcan0 13F#000000050000002E
(1649688825.747119) vcan0 164#0000C01AA8000004
(1649688825.747123) vcan0 17C#0000000010000021
(1649688825.747127) vcan0 18E#00006B
(1649688825.748366) vcan0 1CF#80050000003C
(1649688825.748394) vcan0 1DC#02000039
(1649688825.748399) vcan0 183#0000000C0000102D
(1649688825.749639) vcan0 143#6B6B00E0
(1649688825.749668) vcan0 039#001B
(1649688825.752183) vcan0 095#800007F400000017
(1649688825.752230) vcan0 1A4#0000000800000010
(1649688825.752235) vcan0 1AA#7FFF000000006711
(1649688825.752239) vcan0 1B0#000F0000000157
(1649688825.753541) vcan0 1D0#000000000000000A
(1649688825.754789) vcan0 166#D0320027
(1649688825.755110) vcan0 244#00000001A2
(1649688825.756287) vcan0 158#0000000000000028
(1649688825.756351) vcan0 161#000005500108002B
(1649688825.756357) vcan0 191#010010A141001A
(1649688825.756364) vcan0 133#00000000B6
(1649688825.756368) vcan0 136#0002000000000039
(1649688825.756372) vcan0 13A#0000000000000037
(1649688825.757500) vcan0 13F#000000050000003D
(1649688825.757537) vcan0 164#0000C01AA8000013
(1649688825.757543) vcan0 17C#0000000010000030
(1649688825.757547) vcan0 18E#00007A
(1649688825.757551) vcan0 294#040B0002CF5A000E
(1649688825.758738) vcan0 21E#03E83745220601
(1649688825.760055) vcan0 183#0000001000001037
(1649688825.760093) vcan0 143#6B6B00FF
(1649688825.761388) vcan0 095#800007F400000026
(1649688825.763768) vcan0 039#002A
(1649688825.765065) vcan0 166#D0320036
(1649688825.765093) vcan0 158#0000000000000037
(1649688825.766205) vcan0 161#000005500108003A
(1649688825.766234) vcan0 191#010010A1410029
(1649688825.766239) vcan0 133#0000000089
(1649688825.766243) vcan0 136#000200000000000C
(1649688825.766246) vcan0 13A#000000000000000A
(1649688825.767493) vcan0 13F#0000000500000000
(1649688825.767523) vcan0 164#0000C01AA8000022
(1649688825.767528) vcan0 17C#0000000010000003
(1649688825.767534) vcan0 18E#00004D
(1649688825.767538) vcan0 1CF#80050000000F
(1649688825.767543) vcan0 1DC#0200000C
(1649688825.768745) vcan0 183#0000000C0000100F
(1649688825.769963) vcan0 143#6B6B00C2
(1649688825.770003) vcan0 333#0000000000001E
(1649688825.770688) vcan0 244#0000000145
(1649688825.772322) vcan0 095#800007F400000035
(1649688825.772360) vcan0 1A4#000000080000002F
(1649688825.772366) vcan0 1AA#7FFF000000006720
(1649688825.772370) vcan0 1B0#000F0000000166
(1649688825.773521) vcan0 1D0#000000000000000A
(1649688825.774729) vcan0 166#D0320009
(1649688825.774756) vcan0 305#8017
(1649688825.776037) vcan0 158#000000000000000A
(1649688825.776068) vcan0 161#000005500108000D
(1649688825.776074) vcan0 191#010010A1410038
(1649688825.776078) vcan0 133#0000000098
(1649688825.776082) vcan0 136#000200000000001B
(1649688825.777358) vcan0 13A#0000000000000019
(1649688825.777397) vcan0 13F#000000050000001F
(1649688825.777404) vcan0 164#0000C01AA8000031
(1649688825.777411) vcan0 17C#0000000010000012
(1649688825.777416) vcan0 18E#00005C
(1649688825.779871) vcan0 183#0000000900001011
(1649688825.779917) vcan0 143#6B6B00D1
(1649688825.781257) vcan0 244#0000000124
(1649688825.781411) vcan0 095#800007F400000008
(1649688825.782579) vcan0 039#0039
(1649688825.784701) vcan0 166#D0320018
(1649688825.785880) vcan0 158#0000000000000019
(1649688825.785910) vcan0 161#000005500108001C
(1649688825.785915) vcan0 191#010010A141000B
(1649688825.785919) vcan0 133#00000000A7
(1649688825.787089) vcan0 136#000200000000002A
(1649688825.787114) vcan0 13A#0000000000000028
(1649688825.787119) vcan0 13F#000000050000002E
(1649688825.787123) vcan0 164#0000C01AA8000004
(1649688825.787276) vcan0 17C#0000000010000021
(1649688825.787301) vcan0 18E#00006B
(1649688825.787306) vcan0 1CF#80050000001E
(1649688825.788531) vcan0 1DC#0200001B
(1649688825.788555) vcan0 320#000012
(1649688825.788561) vcan0 324#7465000000000E1A
(1649688825.788566) vcan0 37C#FD00FD00097F001A
(1649688825.788570) vcan0 40C#0236323239533039
(1649688825.788575) vcan0 183#0000000E0000102B
(1649688825.789786) vcan0 454#23EF36
(1649688825.789813) vcan0 143#6B6B00E0
(1649688825.792212) vcan0 095#800007F400000017
(1649688825.792240) vcan0 1A4#000000080000003E
(1649688825.792246) vcan0 1AA#7FFF00000000683E
(1649688825.793368) vcan0 1B0#000F0000000175
(1649688825.793393) vcan0 1D0#000000000000000A
(1649688825.794558) vcan0 166#D0320027
(1649688825.795730) vcan0 158#0000000000000028
(1649688825.795771) vcan0 039#000C
(1649688825.795777) vcan0 161#000005500108002B
(1649688825.795781) vcan0 191#010010A141001A
(1649688825.796935) vcan0 133#00000000B6
(1649688825.796956) vcan0 136#0002000000000039
(1649688825.796960) vcan0 13A#0000000000000037
(1649688825.796964) vcan0 13F#000000050000003D
(1649688825.796964) vcan0 244#0000000171
(1649688825.796969) vcan0 164#0000C01AA8000013
(1649688825.798118) vcan0 17C#0000000010000030
(1649688825.798145) vcan0 18E#00007A
(1649688825.798150) vcan0 294#040B0002CF5A001D
(1649688825.798154) vcan0 21E#03E83745220610
(1649688825.799433) vcan0 183#0000000A0000103E
(1649688825.799475) vcan0 143#6B6B00FF
(1649688825.802092) vcan0 095#800007F400000026
(1649688825.804624) vcan0 166#D0320036
(1649688825.805843) vcan0 158#0000000000000037
(1649688825.805906) vcan0 161#000005500108003A
(1649688825.805914) vcan0 191#010010A1410029
(1649688825.805920) vcan0 133#0000000089
(1649688825.807067) vcan0 136#000200000000000C
(1649688825.807123) vcan0 13A#000000000000000A
(1649688825.807131) vcan0 13F#0000000500000000
(1649688825.807137) vcan0 164#0000C01AA8000022
(1649688825.807145) vcan0 17C#0000000010000003
(1649688825.807150) vcan0 18E#00004D
(1649688825.807395) vcan0 244#00000001C1
(1649688825.808557) vcan0 1CF#80050000002D
(1649688825.808588) vcan0 1DC#0200002A
(1649688825.808594) vcan0 183#0000000700001004
(1649688825.809855) vcan0 143#6B6B00C2
(1649688825.812341) vcan0 095#800007F400000035
(1649688825.812383) vcan0 039#001B
(1649688825.812389) vcan0 1A4#0000000800000001
(1649688825.812403) vcan0 1AA#7FFF000000006801
(1649688825.812409) vcan0 1B0#000F0000000148
(1649688825.813665) vcan0 1D0#000000000000000A
(1649688825.814878) vcan0 166#D0320009
(1649688825.816152) vcan0 158#000000000000000A
(1649688825.816207) vcan0 161#000005500108000D
(1649688825.816214) vcan0 191#010010A1410038
(1649688825.816220) vcan0 133#0000000098
(1649688825.816226) vcan0 136#000200000000001B
(1649688825.816233) vcan0 13A#0000000000000019
(1649688825.817429) vcan0 13F#000000050000001F
(1649688825.817483) vcan0 164#0000C01AA8000031
(1649688825.817491) vcan0 17C#0000000010000012
(1649688825.817497) vcan0 18E#00005C
(1649688825.817504) vcan0 309#00000000000000A2
(1649688825.818665) vcan0 428#01040000521C01
(1649688825.818719) vcan0 405#000004000000000B
(1649688825.819865) vcan0 183#0000000D0000101D
(1649688825.819920) vcan0 143#6B6B00D1
(1649688825.822172) vcan0 095#800007F400000008
(1649688825.823056) vcan0 244#0000000117
(1649688825.824580) vcan0 166#D0320018
(1649688825.825920) vcan0 158#0000000000000019
(1649688825.825974) vcan0 161#000005500108001C
(1649688825.826250) vcan0 191#010010A141000B
(1649688825.826296) vcan0 039#002A
(1649688825.826302) vcan0 133#00000000A7
(1649688825.826306) vcan0 136#000200000000002A
(1649688825.826312) vcan0 13A#0000000000000028
(1649688825.827726) vcan0 13F#000000050000002E
(1649688825.827798) vcan0 164#0000C01AA8000004
(1649688825.827807) vcan0 17C#0000000010000021
(1649688825.827812) vcan0 18E#00006B
(1649688825.827819) vcan0 1CF#80050000003C
(1649688825.827825) vcan0 1DC#02000039
(1649688825.829045) vcan0 183#0000000900001020
(1649688825.829143) vcan0 143#6B6B00E0
(1649688825.831699) vcan0 095#800007F400000017
(1649688825.831810) vcan0 1A4#0000000800000010
(1649688825.832960) vcan0 1AA#7FFF000000006711
(1649688825.833014) vcan0 1B0#000F0000000157
(1649688825.833036) vcan0 1D0#000000000000000A
(1649688825.833622) vcan0 244#00000001B7
(1649688825.834388) vcan0 166#D0320027
(1649688825.835575) vcan0 158#0000000000000028
(1649688825.835621) vcan0 161#000005500108002B
(1649688825.835641) vcan0 191#010010A141001A
(1649688825.836851) vcan0 133#00000000B6
(1649688825.836897) vcan0 136#0002000000000039
(1649688825.836918) vcan0 13A#0000000000000037
(1649688825.836935) vcan0 13F#000000050000003D
(1649688825.836952) vcan0 164#0000C01AA8000013
(1649688825.836979) vcan0 17C#0000000010000030
(1649688825.838181) vcan0 18E#00007A
(1649688825.838233) vcan0 294#040B0002CF5A002C
(1649688825.838253) vcan0 21E#03E8374522062F
(1649688825.839406) vcan0 183#0000000E0000103A
(1649688825.839455) vcan0 143#6B6B00FF
(1649688825.841725) vcan0 095#800007F400000026
(1649688825.841780) vcan0 5A1#960000000000623E
(1649688825.844138) vcan0 166#D0320036
(1649688825.845437) vcan0 158#0000000000000037
(1649688825.845490) vcan0 161#000005500108003A
(1649688825.845512) vcan0 191#010010A1410029
(1649688825.846708) vcan0 133#0000000089
(1649688825.846765) vcan0 039#0039
(1649688825.846787) vcan0 136#000200000000000C
(1649688825.846832) vcan0 13A#000000000000000A
(1649688825.846853) vcan0 13F#0000000500000000
(1649688825.846900) vcan0 164#0000C01AA8000022
(1649688825.848060) vcan0 17C#0000000010000003
(1649688825.848121) vcan0 18E#00004D
(1649688825.848149) vcan0 1CF#80050000000F
(1649688825.848198) vcan0 1DC#0200000C
(1649688825.849505) vcan0 183#0000000A00001001
(1649688825.849546) vcan0 244#00000001B8
(1649688825.849653) vcan0 143#6B6B00C2
(1649688825.852077) vcan0 095#800007F400000035
(1649688825.852129) vcan0 1A4#000000080000002F
(1649688825.852151) vcan0 1AA#7FFF000000006720
(1649688825.853464) vcan0 1B0#000F0000000166
(1649688825.853543) vcan0 1D0#000000000000000A
(1649688825.854755) vcan0 166#D0320009
(1649688825.855975) vcan0 158#000000000000000A
(1649688825.856046) vcan0 161#000005500108000D
(1649688825.856076) vcan0 191#010010A1410038
(1649688825.856103) vcan0 133#0000000098
(1649688825.856128) vcan0 136#000200000000001B
(1649688825.857355) vcan0 13A#0000000000000019
(1649688825.857422) vcan0 13F#000000050000001F
(1649688825.857451) vcan0 164#0000C01AA8000031
(1649688825.857477) vcan0 17C#0000000010000012
(1649688825.857502) vcan0 18E#00005C
(1649688825.860087) vcan0 183#0000000700001013
(1649688825.860189) vcan0 143#6B6B00D1
(1649688825.861537) vcan0 039#000C
(1649688825.861615) vcan0 095#800007F400000008
(1649688825.864166) vcan0 166#D0320018
(1649688825.865623) vcan0 158#0000000000000019
(1649688825.865685) vcan0 244#0000000140
(1649688825.865880) vcan0 161#000005500108001C
(1649688825.865920) vcan0 191#010010A141000B
(1649688825.865927) vcan0 133#00000000A7
(1649688825.867185) vcan0 136#000200000000002A
(1649688825.867224) vcan0 13A#0000000000000028
(1649688825.867231) vcan0 13F#000000050000002E
(1649688825.867237) vcan0 164#0000C01AA8000004
(1649688825.867243) vcan0 17C#0000000010000021
(1649688825.867250) vcan0 18E#00006B
(1649688825.868509) vcan0 1CF#80050000001E
(1649688825.868568) vcan0 1DC#0200001B
(1649688825.868590) vcan0 183#0000000500001024
(1649688825.869811) vcan0 143#6B6B00E0
(1649688825.870992) vcan0 333#0000000000002D
(1649688825.872299) vcan0 095#800007F400000017
(1649688825.872375) vcan0 1A4#000000080000003E
(1649688825.872404) vcan0 1AA#7FFF00000000683E
(1649688825.872430) vcan0 1B0#000F0000000175
(1649688825.873607) vcan0 1D0#000000000000000A
(1649688825.873711) vcan0 039#001B
(1649688825.874873) vcan0 166#D0320027
(1649688825.876173) vcan0 158#0000000000000028
(1649688825.876233) vcan0 161#000005500108002B
(1649688825.876237) vcan0 244#000000010D
(1649688825.876325) vcan0 191#010010A141001A
(1649688825.876353) vcan0 133#00000000B6
(1649688825.876358) vcan0 136#0002000000000039
(1649688825.876364) vcan0 13A#0000000000000037
(1649688825.877541) vcan0 13F#000000050000003D
(1649688825.877613) vcan0 164#0000C01AA8000013
(1649688825.877637) vcan0 17C#0000000010000030
(1649688825.877657) vcan0 18E#00007A
(1649688825.877708) vcan0 294#040B0002CF5A003B
(1649688825.877730) vcan0 21E#03E8374522063E
(1649688825.878941) vcan0 183#0000000300001035
(1649688825.880353) vcan0 143#6B6B00FF
(1649688825.880457) vcan0 305#8026
(1649688825.881727) vcan0 095#800007F400000026
(1649688825.884469) vcan0 166#D0320036
(1649688825.885761) vcan0 158#0000000000000037
(1649688825.885865) vcan0 161#000005500108003A
(1649688825.885894) vcan0 191#010010A1410029
(1649688825.885920) vcan0 133#0000000089
(1649688825.885945) vcan0 136#000200000000000C
(1649688825.887170) vcan0 13A#000000000000000A
(1649688825.887271) vcan0 13F#0000000500000000
(1649688825.887303) vcan0 164#0000C01AA8000022
(1649688825.887330) vcan0 039#002A
(1649688825.887357) vcan0 17C#0000000010000003
(1649688825.887382) vcan0 18E#00004D
(1649688825.887408) vcan0 1CF#80050000002D
(1649688825.888684) vcan0 1DC#0200002A
(1649688825.888787) vcan0 320#000021
(1649688825.888817) vcan0 324#7465000000000E29
(1649688825.888844) vcan0 37C#FD00FD00097F0029
(1649688825.888869) vcan0 183#0000000A00001001
(1649688825.890120) vcan0 143#6B6B00C2
(1649688825.891439) vcan0 095#800007F400000035
(1649688825.892287) vcan0 244#0000000144
(1649688825.892691) vcan0 1A4#0000000800000001
(1649688825.892751) vcan0 1AA#7FFF000000006801
(1649688825.892760) vcan0 1B0#000F0000000148
(1649688825.892766) vcan0 1D0#000000000000000A
(1649688825.894086) vcan0 166#D0320009
(1649688825.895314) vcan0 158#000000000000000A
(1649688825.895359) vcan0 161#000005500108000D
(1649688825.896536) vcan0 191#010010A1410038
(1649688825.896594) vcan0 133#0000000098
(1649688825.896601) vcan0 136#000200000000001B
(1649688825.896605) vcan0 13A#0000000000000019
(1649688825.896610) vcan0 13F#000000050000001F
(1649688825.897830) vcan0 164#0000C01AA8000031
(1649688825.897893) vcan0 17C#0000000010000012
(1649688825.897901) vcan0 18E#00005C
(1649688825.899152) vcan0 183#0000000700001013
(1649688825.899204) vcan0 143#6B6B00D1
(1649688825.901880) vcan0 095#800007F400000008
(1649688825.904374) vcan0 166#D0320018
(1649688825.905678) vcan0 158#0000000000000019
(1649688825.905736) vcan0 161#000005500108001C
(1649688825.905744) vcan0 191#010010A141000B
(1649688825.905751) vcan0 133#00000000A7
(1649688825.906962) vcan0 136#000200000000002A
(1649688825.907020) vcan0 13A#0000000000000028
(1649688825.907028) vcan0 13F#000000050000002E
(1649688825.907034) vcan0 164#0000C01AA8000004
(1649688825.907040) vcan0 039#0039
(1649688825.908247) vcan0 17C#0000000010000021
(1649688825.908316) vcan0 18E#00006B
(1649688825.908325) vcan0 244#000000013A
(1649688825.908407) vcan0 1CF#80050000003C
(1649688825.908443) vcan0 1DC#02000039
(1649688825.908451) vcan0 183#0000000500001024
(1649688825.909591) vcan0 143#6B6B00E0
(1649688825.912064) vcan0 095#800007F400000017
(1649688825.912111) vcan0 1A4#0000000800000010
(1649688825.912117) vcan0 1AA#7FFF000000006711
(1649688825.913438) vcan0 1B0#000F0000000157
(1649688825.913505) vcan0 1D0#000000000000000A
(1649688825.914636) vcan0 166#D0320027
(1649688825.915965) vcan0 158#0000000000000028
(1649688825.916029) vcan0 161#000005500108002B
(1649688825.916038) vcan0 191#010010A141001A
(1649688825.916044) vcan0 133#00000000B6
(1649688825.916050) vcan0 136#0002000000000039
(1649688825.917304) vcan0 13A#0000000000000037
(1649688825.917426) vcan0 13F#000000050000003D
(1649688825.917454) vcan0 164#0000C01AA8000013
(1649688825.917475) vcan0 17C#0000000010000030
(1649688825.917494) vcan0 18E#00007A
(1649688825.917516) vcan0 294#040B0002CF5A000E
(1649688825.917563) vcan0 21E#03E83745220601
(1649688825.918790) vcan0 309#00000000000000B1
(1649688825.920058) vcan0 183#0000000B0000103D
(1649688825.920110) vcan0 143#6B6B00FF
(1649688825.921391) vcan0 039#000C
(1649688825.921445) vcan0 095#800007F400000026
(1649688825.924030) vcan0 244#00000001E3
(1649688825.924927) vcan0 166#D0320036
(1649688825.926091) vcan0 158#0000000000000037
(1649688825.926157) vcan0 161#000005500108003A
(1649688825.926182) vcan0 191#010010A1410029
(1649688825.926224) vcan0 133#0000000089
(1649688825.926230) vcan0 136#000200000000000C
(1649688825.926234) vcan0 13A#000000000000000A
(1649688825.927373) vcan0 13F#0000000500000000
(1649688825.927411) vcan0 164#0000C01AA8000022
(1649688825.927417) vcan0 17C#0000000010000003
(1649688825.927422) vcan0 18E#00004D
(1649688825.927426) vcan0 1CF#80050000000F
(1649688825.928553) vcan0 1DC#0200000C
(1649688825.928596) vcan0 183#0000000800001003
(1649688825.929781) vcan0 143#6B6B00C2
(1649688825.932316) vcan0 095#800007F400000035
(1649688825.932389) vcan0 1A4#000000080000002F
(1649688825.932396) vcan0 1AA#7FFF000000006720
(1649688825.932401) vcan0 1B0#000F0000000166
(1649688825.933587) vcan0 1D0#000000000000000A
(1649688825.934520) vcan0 244#000000011B
(1649688825.934907) vcan0 166#D0320009
(1649688825.934937) vcan0 039#001B
(1649688825.936134) vcan0 158#000000000000000A
(1649688825.936174) vcan0 161#000005500108000D
(1649688825.936180) vcan0 191#010010A1410038
(1649688825.936184) vcan0 133#0000000098
(1649688825.936189) vcan0 136#000200000000001B
(1649688825.936193) vcan0 13A#0000000000000019
(1649688825.937482) vcan0 13F#000000050000001F
(1649688825.937532) vcan0 164#0000C01AA8000031
(1649688825.937538) vcan0 17C#0000000010000012
(1649688825.937543) vcan0 18E#00005C
(1649688825.939869) vcan0 183#0000000600001014
(1649688825.939924) vcan0 143#6B6B00D1
(1649688825.942207) vcan0 095#800007F400000008
(1649688825.944836) vcan0 166#D0320018
(1649688825.946135) vcan0 158#0000000000000019
(1649688825.946189) vcan0 161#000005500108001C
(1649688825.946197) vcan0 191#010010A141000B
(1649688825.946203) vcan0 133#00000000A7
(1649688825.946208) vcan0 136#000200000000002A
(1649688825.946214) vcan0 13A#0000000000000028
(1649688825.947511) vcan0 13F#000000050000002E
(1649688825.947567) vcan0 164#0000C01AA8000004
(1649688825.947575) vcan0 17C#0000000010000021
(1649688825.947581) vcan0 18E#00006B
(1649688825.947587) vcan0 1CF#80050000001E
(1649688825.947593) vcan0 1DC#0200001B
(1649688825.948888) vcan0 183#0000000C0000102D
(1649688825.950147) vcan0 244#00000001F3
(1649688825.950171) vcan0 143#6B6B00E0
(1649688825.950198) vcan0 039#002A
(1649688825.952528) vcan0 095#800007F400000017
(1649688825.952607) vcan0 1A4#000000080000003E
(1649688825.952616) vcan0 1AA#7FFF00000000683E
(1649688825.952622) vcan0 1B0#000F0000000175
(1649688825.952628) vcan0 1D0#000000000000000A
(1649688825.953832) vcan0 166#D0320027
(1649688825.955069) vcan0 158#0000000000000028
(1649688825.956343) vcan0 161#000005500108002B
(1649688825.956411) vcan0 191#010010A141001A
(1649688825.956420) vcan0 133#00000000B6
(1649688825.956426) vcan0 136#0002000000000039
(1649688825.956430) vcan0 13A#0000000000000037
(1649688825.956436) vcan0 13F#000000050000003D
(1649688825.957648) vcan0 164#0000C01AA8000013
(1649688825.957704) vcan0 17C#0000000010000030
(1649688825.957710) vcan0 18E#00007A
(1649688825.957714) vcan0 294#040B0002CF5A001D
(1649688825.957719) vcan0 21E#03E83745220610
(1649688825.958962) vcan0 183#000000090000103F
(1649688825.960302) vcan0 143#6B6B00FF
(1649688825.960541) vcan0 244#00000001D6
(1649688825.961588) vcan0 095#800007F400000026
(1649688825.963937) vcan0 166#D0320036
(1649688825.965088) vcan0 158#0000000000000037
(1649688825.966239) vcan0 161#000005500108003A
(1649688825.966272) vcan0 191#010010A1410029
(1649688825.966278) vcan0 133#0000000089
(1649688825.966283) vcan0 136#000200000000000C
(1649688825.966287) vcan0 13A#000000000000000A
(1649688825.967419) vcan0 13F#0000000500000000
(1649688825.967450) vcan0 164#0000C01AA8000022
(1649688825.967456) vcan0 17C#0000000010000003
(1649688825.967461) vcan0 18E#00004D
(1649688825.967465) vcan0 1CF#80050000002D
(1649688825.967470) vcan0 1DC#0200002A
(1649688825.968640) vcan0 183#0000000E0000100D
(1649688825.969843) vcan0 143#6B6B00C2
(1649688825.969877) vcan0 039#0039
(1649688825.971125) vcan0 188#00000000
(1649688825.971175) vcan0 333#0000000000003C
(1649688825.972443) vcan0 095#800007F400000035
(1649688825.972461) vcan0 1A4#0000000800000001
(1649688825.972467) vcan0 1AA#7FFF000000006801
(1649688825.972472) vcan0 1B0#000F0000000148
(1649688825.972477) vcan0 1D0#000000000000000A
(1649688825.974777) vcan0 166#D0320009
(1649688825.976037) vcan0 158#000000000000000A
(1649688825.976075) vcan0 161#000005500108000D
(1649688825.976081) vcan0 191#010010A1410038
(1649688825.976085) vcan0 133#0000000098
(1649688825.976090) vcan0 136#000200000000001B
(1649688825.976425) vcan0 244#00000001CB
(1649688825.977292) vcan0 13A#0000000000000019
(1649688825.977306) vcan0 13F#000000050000001F
(1649688825.977311) vcan0 164#0000C01AA8000031
(1649688825.977316) vcan0 17C#0000000010000012
(1649688825.977321) vcan0 18E#00005C
(1649688825.979635) vcan0 183#0000000A00001010
(1649688825.979679) vcan0 143#6B6B00D1
(1649688825.982081) vcan0 095#800007F400000008
(1649688825.983337) vcan0 305#8035
(1649688825.984606) vcan0 166#D0320018
(1649688825.985831) vcan0 158#0000000000000019
(1649688825.985867) vcan0 161#000005500108001C
(1649688825.985872) vcan0 191#010090A1410003
(1649688825.985877) vcan0 133#00000000A7
(1649688825.987009) vcan0 136#000200000000002A
(1649688825.987043) vcan0 13A#0000000000000028
(1649688825.987049) vcan0 13F#000000050000002E
(1649688825.987054) vcan0 164#0000C01AA8000004
(1649688825.987058) vcan0 17C#0000000010000021
(1649688825.987063) vcan0 18E#00006B
(1649688825.988259) vcan0 1CF#80050000003C
(1649688825.988290) vcan0 1DC#02000039
(1649688825.988296) vcan0 320#000030
(1649688825.988301) vcan0 324#7465000000000E38
(1649688825.988305) vcan0 37C#FD00FD00097F0038
(1649688825.989483) vcan0 183#0000000F0000102A
(1649688825.989523) vcan0 143#6B6B00E0
(1649688825.990647) vcan0 039#000C
(1649688825.991804) vcan0 095#800007F400000017
(1649688825.991834) vcan0 1A4#0000000800000010
(1649688825.992140) vcan0 244#00000001AE
(1649688825.992989) vcan0 1AA#7FFF000000006711
(1649688825.993034) vcan0 1B0#000F0000000157
(1649688825.993040) vcan0 1D0#000000000000000A
(1649688825.994130) vcan0 166#D0320027
(1649688825.995393) vcan0 158#0000000000000028
(1649688825.995456) vcan0 161#000005500108002B
(1649688825.996652) vcan0 191#010090A1410012
(1649688825.996692) vcan0 133#00000000B6
(1649688825.996698) vcan0 136#0002000000000039
(1649688825.996703) vcan0 13A#0000000000000037
(1649688825.996708) vcan0 13F#000000050000003D
(1649688825.996712) vcan0 164#0000C01AA8000013
(1649688825.997961) vcan0 17C#0000000010000030
(1649688825.998003) vcan0 18E#00007A
(1649688825.998009) vcan0 294#040B0002CF5A002C
(1649688825.998140) vcan0 21E#03E8374522062F
(1649688825.999313) vcan0 183#0000001300001034
(1649688825.999353) vcan0 143#6B6B00FF
(1649688826.001928) vcan0 095#800007F400000026
(1649688826.002538) vcan0 244#00000001CF
(1649688826.004226) vcan0 166#D0320036
(1649688826.005416) vcan0 039#001B
(1649688826.005455) vcan0 158#0000000000000037
(1649688826.005461) vcan0 161#000005500108003A
(1649688826.006628) vcan0 191#010090A1410021
(1649688826.006661) vcan0 133#0000000089
(1649688826.006667) vcan0 136#000200000000000C
(1649688826.006672) vcan0 13A#000000000000000A
(1649688826.006676) vcan0 13F#0000000500000000
(1649688826.006680) vcan0 164#0000C01AA8000022
(1649688826.007791) vcan0 17C#0000000010000003
(1649688826.007822) vcan0 18E#00004D
(1649688826.007828) vcan0 1CF#80050000000F
(1649688826.007832) vcan0 1DC#0200000C
(1649688826.009113) vcan0 183#0000000E0000100D
(1649688826.009153) vcan0 143#6B6B00C2
(1649688826.011556) vcan0 095#800007F400000035
(1649688826.012862) vcan0 1A4#000000080000002F
(1649688826.012938) vcan0 1AA#7FFF000000006720
(1649688826.012948) vcan0 1B0#000F0000000166
(1649688826.012966) vcan0 1D0#000000000000000A
(1649688826.014271) vcan0 166#D0320009
(1649688826.015630) vcan0 158#000000000000000A
(1649688826.015689) vcan0 161#000005500108000D
(1649688826.015697) vcan0 191#010090A1410030
(1649688826.015703) vcan0 133#0000000098
(1649688826.017015) vcan0 136#000200000000001B
(1649688826.017075) vcan0 13A#0000000000000019
(1649688826.017084) vcan0 13F#000000050000001F
(1649688826.017090) vcan0 164#0000C01AA8000031
(1649688826.017096) vcan0 17C#0000000010000012
(1649688826.017102) vcan0 18E#00005C
(1649688826.018223) vcan0 309#0000000000000084
(1649688826.018269) vcan0 244#00000001D9
(1649688826.018288) vcan0 039#002A
(1649688826.019492) vcan0 183#0000000A00001010
(1649688826.019561) vcan0 143#6B6B00D1
(1649688826.021858) vcan0 095#800007F400000008
(1649688826.024193) vcan0 166#D0320018
(1649688826.025491) vcan0 158#0000000000000019
(1649688826.025514) vcan0 161#000005500108001C
(1649688826.025520) vcan0 191#010090A1410003
(1649688826.026700) vcan0 133#00000000A7
(1649688826.026737) vcan0 136#000200000000002A
(1649688826.026743) vcan0 13A#0000000000000028
(1649688826.026747) vcan0 13F#000000050000002E
(1649688826.026751) vcan0 164#0000C01AA8000004
(1649688826.027997) vcan0 17C#0000000010000021
(1649688826.028042) vcan0 18E#00006B
(1649688826.028050) vcan0 1CF#80050000001E
(1649688826.028056) vcan0 1DC#0200001B
(1649688826.029263) vcan0 183#0000000700001022
(1649688826.029293) vcan0 143#6B6B00E0
(1649688826.031596) vcan0 095#800007F400000017
(1649688826.032938) vcan0 1A4#000000080000003E
(1649688826.032984) vcan0 1AA#7FFF00000000683E
(1649688826.032999) vcan0 039#0039
(1649688826.033005) vcan0 1B0#000F0000000175
(1649688826.033009) vcan0 1D0#000000000000000A
(1649688826.033934) vcan0 244#0000000161
(1649688826.034095) vcan0 166#D0320027
(1649688826.035286) vcan0 158#0000000000000028
(1649688826.035327) vcan0 161#000005500108002B
(1649688826.036562) vcan0 191#010090A1410012
(1649688826.036639) vcan0 133#00000000B6
(1649688826.036645) vcan0 136#0002000000000039
(1649688826.036652) vcan0 13A#0000000000000037
(1649688826.036658) vcan0 13F#000000050000003D
(1649688826.036663) vcan0 164#0000C01AA8000013
(1649688826.037954) vcan0 17C#0000000010000030
(1649688826.038005) vcan0 18E#00007A
(1649688826.038011) vcan0 294#040B0002CF5A003B
(1649688826.038077) vcan0 21E#03E8374522063E
(1649688826.039211) vcan0 183#0000000D0000103B
(1649688826.039243) vcan0 143#6B6B00FF
(1649688826.041526) vcan0 095#800007F400000026
(1649688826.043903) vcan0 166#D0320036
(1649688826.044496) vcan0 244#000000019A
(1649688826.045052) vcan0 158#0000000000000037
(1649688826.046183) vcan0 161#000005500108003A
(1649688826.046218) vcan0 191#010090A1410021
(1649688826.046224) vcan0 133#0000000089
(1649688826.046229) vcan0 136#000200000000000C
(1649688826.046233) vcan0 13A#000000000000000A
(1649688826.047478) vcan0 13F#0000000500000000
(1649688826.047509) vcan0 039#000C
(1649688826.047515) vcan0 164#0000C01AA8000022
(1649688826.047520) vcan0 17C#0000000010000003
(1649688826.047524) vcan0 18E#00004D
(1649688826.047529) vcan0 1CF#80050000002D
(1649688826.048752) vcan0 1DC#0200002A
(1649688826.048790) vcan0 183#0000001100001009
(1649688826.049953) vcan0 143#6B6B00C2
(1649688826.052510) vcan0 095#800007F400000035
(1649688826.052556) vcan0 1A4#0000000800000001
(1649688826.052564) vcan0 1AA#7FFF000000006801
(1649688826.052570) vcan0 1B0#000F0000000148
(1649688826.052576) vcan0 1D0#000000000000000A
(1649688826.055001) vcan0 166#D0320009
(1649688826.055045) vcan0 158#000000000000000A
(1649688826.056215) vcan0 161#000005500108000D
(1649688826.056257) vcan0 191#010090A1410030
(1649688826.056265) vcan0 133#0000000098
(1649688826.056271) vcan0 136#000200000000001B
(1649688826.056277) vcan0 13A#0000000000000019
(1649688826.057473) vcan0 13F#000000050000001F
(1649688826.057494) vcan0 164#0000C01AA8000031
(1649688826.057501) vcan0 17C#0000000010000012
(1649688826.057507) vcan0 18E#00005C
(1649688826.059873) vcan0 183#0000000C0000101E
(1649688826.059931) vcan0 143#6B6B00D1
(1649688826.060249) vcan0 244#0000000153
(1649688826.061460) vcan0 039#001B
(1649688826.061482) vcan0 095#800007F400000008
(1649688826.063883) vcan0 166#D0320018
(1649688826.065109) vcan0 158#0000000000000019
(1649688826.066282) vcan0 161#000005500108001C
(1649688826.066328) vcan0 191#010090A1410003
(1649688826.066334) vcan0 133#00000000A7
(1649688826.066339) vcan0 136#000200000000002A
(1649688826.066344) vcan0 13A#0000000000000028
(1649688826.067484) vcan0 13F#000000050000002E
(1649688826.067520) vcan0 164#0000C01AA8000004
(1649688826.067526) vcan0 17C#0000000010000021
(1649688826.067530) vcan0 18E#00006B
(1649688826.067535) vcan0 1CF#80050000003C
(1649688826.067539) vcan0 1DC#02000039
(1649688826.068669) vcan0 183#0000001000001028
(1649688826.069836) vcan0 143#6B6B00E0
(1649688826.071048) vcan0 333#0000000000000F
(1649688826.072416) vcan0 095#800007F400000017
(1649688826.072476) vcan0 1A4#0000000800000010
(1649688826.072484) vcan0 1AA#7FFF000000006711
(1649688826.072490) vcan0 1B0#000F0000000157
(1649688826.072496) vcan0 1D0#000000000000000A
(1649688826.073689) vcan0 039#002A
(1649688826.074887) vcan0 166#D0320027
(1649688826.075876) vcan0 244#00000001C4
(1649688826.076118) vcan0 158#0000000000000028
(1649688826.076167) vcan0 161#000005500108002B
(1649688826.076173) vcan0 191#010090A1410012
(1649688826.076178) vcan0 133#00000000B6
(1649688826.076185) vcan0 136#0002000000000039
(1649688826.076189) vcan0 13A#0000000000000037
(1649688826.077395) vcan0 13F#000000050000003D
(1649688826.077448) vcan0 164#0000C01AA8000013
(1649688826.077455) vcan0 17C#0000000010000030
(1649688826.077460) vcan0 18E#00007A
(1649688826.077465) vcan0 294#040B0002CF5A000E
(1649688826.078654) vcan0 21E#03E83745220601
(1649688826.080020) vcan0 183#0000000C0000103C
(1649688826.080057) vcan0 143#6B6B00FF
(1649688826.082362) vcan0 095#800007F400000026
(1649688826.084890) vcan0 166#D0320036
(1649688826.086168) vcan0 158#0000000000000037
(1649688826.086213) vcan0 161#000005500108003A
(1649688826.086220) vcan0 191#010090A1410021
(1649688826.086224) vcan0 133#0000000089
(1649688826.086229) vcan0 136#000200000000000C
(1649688826.086234) vcan0 13A#000000000000000A
(1649688826.086333) vcan0 244#00000001E9
(1649688826.087343) vcan0 039#0039
(1649688826.087366) vcan0 13F#0000000500000000
(1649688826.087372) vcan0 164#0000C01AA8000022
(1649688826.087376) vcan0 17C#0000000010000003
(1649688826.087381) vcan0 18E#00004D
(1649688826.088557) vcan0 1CF#80050000000F
(1649688826.088588) vcan0 1DC#0200000C
(1649688826.088594) vcan0 305#8008
(1649688826.088598) vcan0 320#000003
(1649688826.088603) vcan0 324#7465000000000E0B
(1649688826.088608) vcan0 37C#FD00FD00097F000B
(1649688826.088612) vcan0 183#0000000900001002
(1649688826.089751) vcan0 40C#033133383439000D
(1649688826.089781) vcan0 454#23EF09
(1649688826.089787) vcan0 143#6B6B00C2
(1649688826.092270) vcan0 095#800007F400000035
(1649688826.092351) vcan0 1A4#000000080000002F
(1649688826.092362) vcan0 1AA#7FFF000000006720
(1649688826.092366) vcan0 1B0#000F0000000166
(1649688826.093619) vcan0 1D0#000000000000000A
(1649688826.094900) vcan0 166#D0320009
(1649688826.096112) vcan0 158#000000000000000A
(1649688826.096156) vcan0 161#000005500108000D
(1649688826.096161) vcan0 191#010090A1410030
(1649688826.096165) vcan0 133#0000000098
(1649688826.096170) vcan0 136#000200000000001B
(1649688826.096174) vcan0 13A#0000000000000019
(1649688826.097390) vcan0 13F#000000050000001F
(1649688826.097436) vcan0 164#0000C01AA8000031
(1649688826.097442) vcan0 17C#0000000010000012
(1649688826.097446) vcan0 18E#00005C
(1649688826.099856) vcan0 183#0000000E0000101C
(1649688826.099894) vcan0 143#6B6B00D1
(1649688826.101141) vcan0 039#000C
(1649688826.102049) vcan0 244#0000000130
(1649688826.102328) vcan0 095#800007F400000008
(1649688826.104729) vcan0 166#D0320018
(1649688826.105862) vcan0 158#0000000000000019
(1649688826.105887) vcan0 161#000005500108001C
(1649688826.106106) vcan0 191#010090A1410003
(1649688826.106117) vcan0 133#00000000A7
(1649688826.106121) vcan0 136#000200000000002A
(1649688826.107294) vcan0 13A#0000000000000028
(1649688826.107324) vcan0 13F#000000050000002E
(1649688826.107329) vcan0 164#0000C01AA8000004
(1649688826.107333) vcan0 17C#0000000010000021
(1649688826.107338) vcan0 18E#00006B
(1649688826.107342) vcan0 1CF#80050000001E
(1649688826.108480) vcan0 1DC#0200001B
(1649688826.108509) vcan0 183#0000000A0000102F
(1649688826.109773) vcan0 143#6B6B00E0
(1649688826.112190) vcan0 095#800007F400000017
(1649688826.112227) vcan0 1A4#000000080000003E
(1649688826.112234) vcan0 1AA#7FFF00000000683E
(1649688826.112463) vcan0 244#0000000151
(1649688826.113401) vcan0 1B0#000F0000000175
(1649688826.113414) vcan0 1D0#000000000000000A
(1649688826.114583) vcan0 166#D0320027
(1649688826.115855) vcan0 158#0000000000000028
(1649688826.115886) vcan0 161#000005500108002B
(1649688826.115893) vcan0 191#010090A1410012
(1649688826.115897) vcan0 133#00000000B6
(1649688826.117045) vcan0 136#0002000000000039
(1649688826.117071) vcan0 13A#0000000000000037
(1649688826.117076) vcan0 039#001B
(1649688826.117081) vcan0 13F#000000050000003D
(1649688826.117086) vcan0 164#0000C01AA8000013
(1649688826.117091) vcan0 17C#0000000010000030
(1649688826.118217) vcan0 18E#00007A
(1649688826.118248) vcan0 294#040B0002CF5A001D
(1649688826.118254) vcan0 21E#03E83745220610
(1649688826.118259) vcan0 309#0000000000000093
(1649688826.119387) vcan0 428#01040000521C10
(1649688826.119418) vcan0 405#000004000000001A
(1649688826.119424) vcan0 183#0000000700001031
(1649688826.119428) vcan0 143#6B6B00FF
(1649688826.121768) vcan0 095#800007F400000026
(1649688826.124159) vcan0 166#D0320036
(1649688826.125465) vcan0 158#0000000000000037
(1649688826.125515) vcan0 161#000005500108003A
(1649688826.125521) vcan0 191#010090A1410021
(1649688826.126704) vcan0 133#0000000089
(1649688826.126738) vcan0 136#000200000000000C
(1649688826.126744) vcan0 13A#000000000000000A
(1649688826.126749) vcan0 13F#0000000500000000
(1649688826.126754) vcan0 164#0000C01AA8000022
(1649688826.128091) vcan0 17C#0000000010000003
(1649688826.128121) vcan0 18E#00004D
(1649688826.128128) vcan0 1CF#80050000002D
(1649688826.128135) vcan0 1DC#0200002A
(1649688826.128195) vcan0 244#000000017A
(1649688826.129318) vcan0 183#0000000D0000100E
(1649688826.129391) vcan0 143#6B6B00C2
(1649688826.131763) vcan0 039#002A
(1649688826.131815) vcan0 095#800007F400000035
(1649688826.131821) vcan0 1A4#0000000800000001
(1649688826.133066) vcan0 1AA#7FFF000000006801
(1649688826.133102) vcan0 1B0#000F0000000148
(1649688826.133108) vcan0 1D0#000000000000000A
(1649688826.134148) vcan0 166#D0320009
(1649688826.135387) vcan0 158#000000000000000A
(1649688826.135415) vcan0 161#000005500108000D
(1649688826.136644) vcan0 191#010090A1410030
(1649688826.136671) vcan0 133#0000000098
(1649688826.136677) vcan0 136#000200000000001B
(1649688826.136682) vcan0 13A#0000000000000019
(1649688826.136687) vcan0 13F#000000050000001F
(1649688826.136691) vcan0 164#0000C01AA9000030
(1649688826.137860) vcan0 17C#0000000010000012
(1649688826.137876) vcan0 18E#00005C
(1649688826.138581) vcan0 244#0000000144
(1649688826.139009) vcan0 183#0000000900001011
(1649688826.140167) vcan0 143#6B6B00D1
(1649688826.141491) vcan0 095#800007F400000008
(1649688826.143880) vcan0 166#D0320018
(1649688826.146116) vcan0 158#0000000000000019
(1649688826.146142) vcan0 161#000005500108001C
(1649688826.146148) vcan0 191#010090A1410003
(1649688826.146152) vcan0 133#00000000A7
(1649688826.146157) vcan0 136#000200000000002A
(1649688826.147249) vcan0 13A#0000000000000028
(1649688826.147293) vcan0 13F#000000050000002E
(1649688826.147299) vcan0 164#0000C01AA8000004
(1649688826.147304) vcan0 17C#0000000010000021
(1649688826.147308) vcan0 18E#00006B
(1649688826.147313) vcan0 1CF#80050000003C
(1649688826.148529) vcan0 1DC#02000039
(1649688826.148572) vcan0 183#0000000E0000102B
(1649688826.149774) vcan0 143#6B6B00E0
(1649688826.149815) vcan0 039#0039
(1649688826.152259) vcan0 095#800007F400000017
(1649688826.152301) vcan0 1A4#0000000800000010
(1649688826.152307) vcan0 1AA#7FFF000000006711
(1649688826.152311) vcan0 1B0#000F0000000157
(1649688826.153449) vcan0 1D0#000000000000000A
(1649688826.154177) vcan0 244#0000000132
(1649688826.154641) vcan0 166#D0320027
(1649688826.155818) vcan0 158#0000000000000028
(1649688826.155847) vcan0 161#000005500108002B
(1649688826.155853) vcan0 191#010090A1410012
(1649688826.155857) vcan0 133#00000000B6
(1649688826.156983) vcan0 136#0002000000000039
(1649688826.157026) vcan0 13A#0000000000000037
(1649688826.157032) vcan0 13F#000000050000003D
(1649688826.157037) vcan0 164#0000C01AA8000013
(1649688826.157041) vcan0 17C#0000000010000030
(1649688826.157046) vcan0 18E#00007A
(1649688826.158207) vcan0 294#040B0002CF5A002C
(1649688826.158275) vcan0 21E#03E8374522062F
(1649688826.159423) vcan0 183#0000000A0000103E
(1649688826.159470) vcan0 143#6B6B00FF
(1649688826.162253) vcan0 095#800007F400000026
(1649688826.163577) vcan0 039#000C
(1649688826.164704) vcan0 244#000000014E
(1649688826.164791) vcan0 166#D0320036
(1649688826.165962) vcan0 158#0000000000000037
(1649688826.166027) vcan0 161#000005500108003A
(1649688826.166036) vcan0 191#010090A1410021
(1649688826.166040) vcan0 133#0000000089
(1649688826.166044) vcan0 136#000200000000000C
(1649688826.167178) vcan0 13A#000000000000000A
(1649688826.167213) vcan0 13F#0000000500000000
(1649688826.167218) vcan0 164#0000C01AA8000022
(1649688826.167222) vcan0 17C#0000000010000003
(1649688826.167226) vcan0 18E#00004D
(1649688826.168459) vcan0 1CF#80050000000F
(1649688826.168493) vcan0 1DC#0200000C
(1649688826.168499) vcan0 183#0000000700001004
(1649688826.169623) vcan0 143#6B6B00C2
(1649688826.170875) vcan0 333#0000000000001E
(1649688826.172008) vcan0 095#800007F400000035
(1649688826.172044) vcan0 1A4#000000080000002F
(1649688826.172049) vcan0 1AA#7FFF000000006720
(1649688826.173203) vcan0 1B0#000F0000000166
(1649688826.173328) vcan0 1D0#000000000000000A
(1649688826.174499) vcan0 166#D0320009
(1649688826.175714) vcan0 158#000000000000000A
(1649688826.175750) vcan0 161#000005500108000D
(1649688826.175756) vcan0 191#010090A1410030
(1649688826.175760) vcan0 133#0000000098
(1649688826.176997) vcan0 136#000200000000001B
(1649688826.177026) vcan0 13A#0000000000000019
(1649688826.177031) vcan0 13F#000000050000001F
(1649688826.177035) vcan0 164#0000C01AA8000031
(1649688826.177039) vcan0 039#001B
(1649688826.178194) vcan0 17C#0000000010000012
(1649688826.178222) vcan0 18E#00005C
(1649688826.179500) vcan0 183#0000000D0000101D
(1649688826.179528) vcan0 143#6B6B00D1
(1649688826.180337) vcan0 244#0000000102
(1649688826.181843) vcan0 095#800007F400000008
(1649688826.184227) vcan0 166#D0320018
(1649688826.185386) vcan0 158#0000000000000019
(1649688826.185422) vcan0 161#000005500108001C
(1649688826.186576) vcan0 191#010090A1410003
(1649688826.186605) vcan0 133#00000000A7
(1649688826.186611) vcan0 136#000200000000002A
(1649688826.186615) vcan0 13A#0000000000000028
(1649688826.186620) vcan0 13F#000000050000002E
(1649688826.187741) vcan0 164#0000C01AA8000004
(1649688826.187771) vcan0 17C#0000000010000021
(1649688826.187776) vcan0 18E#00006B
(1649688826.187781) vcan0 1CF#80050000001E
(1649688826.187785) vcan0 1DC#0200001B
(1649688826.187789) vcan0 320#000012
(1649688826.188943) vcan0 324#7465000000000E1A
(1649688826.188976) vcan0 37C#FD00FD00097F001A
(1649688826.188982) vcan0 183#0000000900001020
(1649688826.190172) vcan0 143#6B6B00E0
(1649688826.190204) vcan0 039#002A
(1649688826.190210) vcan0 305#8017
(1649688826.192712) vcan0 095#800007F400000017
(1649688826.192763) vcan0 1A4#000000080000003E
(1649688826.192770) vcan0 1AA#7FFF00000000683E
(1649688826.192775) vcan0 1B0#000F0000000175
(1649688826.192779) vcan0 1D0#000000000000000A
(1649688826.193911) vcan0 166#D0320027
(1649688826.195254) vcan0 158#0000000000000028
(1649688826.195301) vcan0 161#000005500108002B
(1649688826.195957) vcan0 244#0000000194
(1649688826.196502) vcan0 191#010090A1410012
(1649688826.196547) vcan0 133#00000000B6
(1649688826.196555) vcan0 136#0002000000000039
(1649688826.196561) vcan0 13A#0000000000000037
(1649688826.196566) vcan0 13F#000000050000003D
(1649688826.197738) vcan0 164#0000C01AA8000013
(1649688826.197786) vcan0 17C#0000000010000030
(1649688826.197794) vcan0 18E#00007A
(1649688826.197852) vcan0 294#040B0002CF5A003B
(1649688826.197860) vcan0 21E#03E8374522063E
(1649688826.199052) vcan0 183#0000000E0000103A
(1649688826.200339) vcan0 143#6B6B00FF
(1649688826.201570) vcan0 095#800007F400000026
(1649688826.204062) vcan0 166#D0320036
(1649688826.205357) vcan0 158#0000000000000037
(1649688826.205398) vcan0 161#000005500108003A
(1649688826.206399) vcan0 244#000000010F
(1649688826.206583) vcan0 191#010090A1410021
(1649688826.206626) vcan0 039#0039
(1649688826.206634) vcan0 133#0000000089
(1649688826.206642) vcan0 136#000200000000000C
