(1649771885.950960) vcan0 4FC#CF8B0C0DA6A09961
(1649771885.956179) vcan0 54D#7436DC60B7681F
(1649771885.961755) vcan0 3A4#949D4132
(1649771885.967517) vcan0 719#69BB61486CE30977
(1649771885.972945) vcan0 379#1B04CA6FBC50084E
(1649771885.978626) vcan0 39D#B98467463DF80527
(1649771885.984021) vcan0 13D#2B36027545373814
(1649771885.989567) vcan0 06A#0ED67F3B
(1649771885.995430) vcan0 67D#0CAEDF11CA035F4D
(1649771886.000907) vcan0 2F4#
(1649771886.006226) vcan0 0F4#D00D7A650EC8
(1649771886.012079) vcan0 0B4#7AAB08032D04927E
(1649771886.017804) vcan0 119#EA549A4CB6
(1649771886.023623) vcan0 17D#F484D4
(1649771886.029133) vcan0 40E#FF09892578AC440C
(1649771886.034735) vcan0 713#DEB98A3C904D9656
(1649771886.040051) vcan0 1EA#5B51F523DEC46F11
(1649771886.045521) vcan0 46A#76CB30325FC52455
(1649771886.051046) vcan0 7F3#6D8D2361A7503B
(1649771886.056423) vcan0 281#D554CD359AE345
(1649771886.062097) vcan0 07C#5070140DFA998D6A
(1649771886.067563) vcan0 362#B46CDE7B
(1649771886.073070) vcan0 064#E9FBB436
(1649771886.078775) vcan0 6C1#08D5357AAC9805
(1649771886.084251) vcan0 5B2#8A5D75
(1649771886.089841) vcan0 440#7B
(1649771886.095701) vcan0 248#DBFC0D20C9A4D74C
(1649771886.101140) vcan0 5CF#
(1649771886.106950) vcan0 36F#4678D1
(1649771886.112425) vcan0 5F8#41CE1C185C9EDA16
(1649771886.117851) vcan0 3AE#D3257A3A70B2877E
(1649771886.123704) vcan0 7F2#1C4B8D2AA49DBB03
(1649771886.129261) vcan0 13E#C0078C067E05
(1649771886.134827) vcan0 1A7#B2B14C43EFD3F95E
(1649771886.140218) vcan0 424#B878D12BF4E9DE34
(1649771886.145760) vcan0 03D#40C82229ACFB7811
(1649771886.151640) vcan0 1CF#7D7A257FC7E7
(1649771886.157276) vcan0 580#238616732F81BB5E
(1649771886.162999) vcan0 2E9#9F33435DDB92
(1649771886.168339) vcan0 6D2#7F30E12B10C81B35
(1649771886.173708) vcan0 761#8FCD950F09F97B47
(1649771886.179230) vcan0 77B#F8
(1649771886.184803) vcan0 5CE#94
(1649771886.190521) vcan0 6CC#B729EC00
(1649771886.196108) vcan0 65A#6228931F
(1649771886.201725) vcan0 4F2#09FDDD4FDB
(1649771886.207264) vcan0 27C#B6928D254E017B22
(1649771886.212620) vcan0 763#5EC99657C5
(1649771886.218291) vcan0 375#CECF406CF06ACA14
(1649771886.224075) vcan0 62E#90CE523DFC43
(1649771886.229709) vcan0 277#0772BF5F
(1649771886.235556) vcan0 1F8#DF698B2A5288C22F
(1649771886.241132) vcan0 7F2#2D04
(1649771886.246644) vcan0 0C7#C02C7975439B
(1649771886.252090) vcan0 1DF#919C7D3F42E1D5
(1649771886.257561) vcan0 2AC#
(1649771886.263266) vcan0 4DD#12E91B050C
(1649771886.268671) vcan0 49C#0857
(1649771886.274086) vcan0 3C7#
(1649771886.279918) vcan0 4CE#128E2F2EC1A4C4
(1649771886.285463) vcan0 479#A6D1D541406D3614
(1649771886.291189) vcan0 375#8408393154C5
(1649771886.296531) vcan0 5DD#97A691308A
(1649771886.302226) vcan0 305#ABBE1C2FE3070C06
(1649771886.307619) vcan0 674#EF1A5C3E100B9A02
(1649771886.313096) vcan0 760#23122A5E2733D0
(1649771886.318851) vcan0 307#E6383D52D69F5B58
(1649771886.324340) vcan0 4B2#974420222B09AC45
(1649771886.330007) vcan0 137#6B76E259ADEC580F
(1649771886.335852) vcan0 4A3#01B2146D81D29A6D
(1649771886.341120) vcan0 405#0B13662C0A2F9D03
(1649771886.346732) vcan0 737#ED36A909AB9D
(1649771886.352029) vcan0 174#BBA87454D4D86206
(1649771886.357546) vcan0 3D4#FB0B335ADBFE511E
(1649771886.363341) vcan0 559#B1
(1649771886.368862) vcan0 3DA#36E3762711655E7C
(1649771886.374369) vcan0 185#BE51
(1649771886.380082) vcan0 091#
(1649771886.385592) vcan0 458#A12BE40B8F
(1649771886.391222) vcan0 56B#3AB11F2EDF3E481D
(1649771886.396641) vcan0 46B#B317AB233F
(1649771886.401949) vcan0 4D4#1A77E22A2D12C008
(1649771886.407670) vcan0 090#39EC8A6A6A742B57
(1649771886.413226) vcan0 114#7BD989539AF22137
(1649771886.419209) vcan0 111#C3002B4FA301D01F
(1649771886.424753) vcan0 6FA#39FE1628528B7F6E
(1649771886.430337) vcan0 522#E29EC44A8D9A6514
(1649771886.436158) vcan0 469#6DD9AD31D4401B27
(1649771886.441558) vcan0 212#
(1649771886.447473) vcan0 4CF#13D16B395F7D857D
(1649771886.452894) vcan0 5F9#C9F1B0540E3F7C3A
(1649771886.458643) vcan0 4BC#A8319E71
(1649771886.464222) vcan0 67E#70B723697825895F
(1649771886.469647) vcan0 3D8#CBB0084EFAE8701C
(1649771886.475306) vcan0 784#8783D630ED6BBE0E
(1649771886.480644) vcan0 7C9#C1ACD935
(1649771886.485997) vcan0 615#C108D63D
(1649771886.491321) vcan0 602#43E09908FB
(1649771886.496840) vcan0 721#091BAE02DD233151
(1649771886.502568) vcan0 550#AB
(1649771886.508050) vcan0 71C#47B98A6CF492AD4A
(1649771886.513541) vcan0 6C5#EE7B
(1649771886.518951) vcan0 1BF#3792D7688959
(1649771886.524314) vcan0 46A#64A33C727FAA5632
(1649771886.529800) vcan0 4CD#630D6B3DCF3A
(1649771886.535800) vcan0 5FB#CB167C181C1D
(1649771886.541175) vcan0 7B2#FA40BE13
(1649771886.546885) vcan0 686#D2F0D635A2
(1649771886.552243) vcan0 3C0#9790390F86F2CE46
(1649771886.557678) vcan0 42C#D018E820EB
(1649771886.563039) vcan0 3FB#742768156668C6
(1649771886.568336) vcan0 200#E5121D3BCE8EA730
(1649771886.573607) vcan0 6FF#9DC9F100FAFC0B5F
(1649771886.579321) vcan0 5EF#161A9921A2CDDC61
(1649771886.584849) vcan0 23D#
(1649771886.590506) vcan0 5B5#658E9A08762186
(1649771886.595826) vcan0 590#FC13555CBCD9DF3F
(1649771886.601324) vcan0 382#A8A735707D37791C
(1649771886.606813) vcan0 7D3#E39F3F25D4C16D2F
(1649771886.612088) vcan0 1F5#A2501560F410FA44
(1649771886.617541) vcan0 312#EE0D062401E17117
(1649771886.623419) vcan0 2A8#A3AE4E79E5
(1649771886.628874) vcan0 315#A89D1B73CBF8905E
(1649771886.634493) vcan0 4BF#411A177450BA7427
(1649771886.639790) vcan0 30A#0C9454678C76B621
(1649771886.645189) vcan0 309#09AE2F3E
(1649771886.650690) vcan0 2D1#B0F41304C6A46A6A
(1649771886.655985) vcan0 0B6#BBB5
(1649771886.661480) vcan0 792#C9B422343A5AA53F
(1649771886.667190) vcan0 3AE#1F67B26EC46E0014
(1649771886.672602) vcan0 4B5#8F6791727531FC
(1649771886.678236) vcan0 0D4#
(1649771886.684057) vcan0 00D#6A
(1649771886.689581) vcan0 386#F23D6459
(1649771886.694902) vcan0 661#1D6BE2
(1649771886.700213) vcan0 7F5#DFC2E01487D7D106
(1649771886.705671) vcan0 482#C131774630D0BB3F
(1649771886.711108) vcan0 315#
(1649771886.716448) vcan0 5A7#4049E3
(1649771886.721991) vcan0 053#5A4A8A6560
(1649771886.727744) vcan0 4D6#76E3C8685C
(1649771886.733256) vcan0 539#B336E1559ACBA77D
(1649771886.738652) vcan0 40C#B1
(1649771886.743900) vcan0 2A9#
(1649771886.749403) vcan0 538#5C7778334ED0304A
(1649771886.755150) vcan0 62B#
(1649771886.760579) vcan0 4D4#4EDA2C6F2785787A
(1649771886.766153) vcan0 65E#885D835E341B690B
(1649771886.771925) vcan0 16E#918BD227A73E4A16
(1649771886.777473) vcan0 267#410AF213
(1649771886.782680) vcan0 415#7582
(1649771886.787961) vcan0 282#EACD3E38BA373E68
(1649771886.793470) vcan0 348#08086F327369
(1649771886.798892) vcan0 397#46
(1649771886.804101) vcan0 17A#92DDE63A
(1649771886.809554) vcan0 43D#0DA33A0BABD56210
(1649771886.815280) vcan0 419#5214AD2680DE2F6A
(1649771886.820707) vcan0 0E2#F4944E
(1649771886.826183) vcan0 385#B77BBA6C0726EB58
(1649771886.831685) vcan0 567#C2
(1649771886.837073) vcan0 6E8#23A207367F8A9C03
(1649771886.842731) vcan0 5EC#EAE20A446677A14C
(1649771886.848000) vcan0 6FD#3FFF724C3BDB8167
(1649771886.853493) vcan0 397#E6B0E477B0771279
(1649771886.859256) vcan0 0EA#30564263CCC17B3B
(1649771886.864630) vcan0 3CC#C416B463
(1649771886.870141) vcan0 28D#59ED8476F43F7724
(1649771886.875507) vcan0 41D#A478B755056B1806
(1649771886.880794) vcan0 0E6#84F5B409D20666
(1649771886.886413) vcan0 230#387E07102D996465
(1649771886.891878) vcan0 0EA#6874E64C81940D
(1649771886.897404) vcan0 7C3#310C205EADF0E23E
(1649771886.902735) vcan0 288#7AB2
(1649771886.907947) vcan0 586#A695275A1450384C
(1649771886.913415) vcan0 3BA#
(1649771886.918753) vcan0 61B#DCA2012A017FA133
(1649771886.924057) vcan0 373#
(1649771886.929485) vcan0 0CE#D1EEC978B809284E
(1649771886.935247) vcan0 183#3A9E353347A1B117
(1649771886.940684) vcan0 088#F49194561073D86D
(1649771886.946288) vcan0 4CD#6541662A545AAB0A
(1649771886.951872) vcan0 5AD#68AAE3566769875D
(1649771886.957350) vcan0 20B#
(1649771886.962741) vcan0 31D#28A7361190662060
(1649771886.967974) vcan0 47A#34BC8573484D9F60
(1649771886.973573) vcan0 108#0057C72E8B
(1649771886.979218) vcan0 63E#D253880AC7967B3C
(1649771886.984590) vcan0 7A6#D709542A73AC0A
(1649771886.990186) vcan0 235#C706B650E2371661
(1649771886.995633) vcan0 248#49A19D3E537C822E
(1649771887.001085) vcan0 3A0#7AA4170CBD2E27
(1649771887.006595) vcan0 6A1#4D9547
(1649771887.011826) vcan0 09F#63
(1649771887.017402) vcan0 486#325CB027
(1649771887.023233) vcan0 49E#8CA1982B44
(1649771887.028692) vcan0 5CC#B8486A
(1649771887.034443) vcan0 6A0#E4F77B26E818EF03
(1649771887.040483) vcan0 0AF#3B9571324FECE65C
(1649771887.045999) vcan0 3B5#0C1B0E5A5662
(1649771887.051365) vcan0 559#72C5515BF8FD6301
(1649771887.056753) vcan0 1DB#9FA73D3661
(1649771887.062193) vcan0 539#26
(1649771887.067560) vcan0 3D6#1C16
(1649771887.072860) vcan0 616#A409E268
(1649771887.078241) vcan0 654#9E65786403AF5B75
(1649771887.084185) vcan0 2B5#529B42526A769F19
(1649771887.089751) vcan0 48F#C1D8472AE8B94A31
(1649771887.095026) vcan0 6B7#E0B7AE
(1649771887.100328) vcan0 408#F46609314291DE6C
(1649771887.105830) vcan0 351#1A0B960927170157
(1649771887.111634) vcan0 2CD#CA607D7AE370
(1649771887.117014) vcan0 00B#99BDC75B5F2ED01E
(1649771887.122714) vcan0 3F6#62DD2B14AB0635
(1649771887.128035) vcan0 610#167DD400
(1649771887.133627) vcan0 712#880CE85DC99565
(1649771887.138950) vcan0 40A#5CFE2E621208EA3C
(1649771887.144287) vcan0 3E8#
(1649771887.149807) vcan0 56A#619E5E1737F0FA3D
(1649771887.155576) vcan0 5A5#1A613939B0453A20
(1649771887.161037) vcan0 199#0F740A
(1649771887.166747) vcan0 1EA#3A
(1649771887.172137) vcan0 225#
(1649771887.177744) vcan0 727#008FC9
(1649771887.183021) vcan0 38C#44ABBE6875A70A41
(1649771887.188356) vcan0 2AC#AE2E680117C8CF30
(1649771887.193938) vcan0 107#4EB8CA6EACAEF14E
(1649771887.199667) vcan0 43A#5CF42B6FD335DE1F
(1649771887.205084) vcan0 01C#620BD707077A4612
(1649771887.210712) vcan0 1DC#02DAB13E0184113B
(1649771887.216104) vcan0 0ED#387D750715F02522
(1649771887.221686) vcan0 3C0#4693FA4D4DCF3216
(1649771887.227035) vcan0 195#C2763D57418C6827
(1649771887.232316) vcan0 323#
(1649771887.237848) vcan0 280#D61A185EBA3E0F
(1649771887.243643) vcan0 610#8E74
(1649771887.249154) vcan0 79D#
(1649771887.254874) vcan0 78D#7AB5F8377B
(1649771887.260226) vcan0 6D2#9098
(1649771887.265807) vcan0 6EA#E0599D797FD8
(1649771887.271092) vcan0 261#C164
(1649771887.276336) vcan0 612#AE59114192E8EC1A
(1649771887.281914) vcan0 5C0#4D27FC36
(1649771887.287720) vcan0 3B6#FD499C5A53FBE767
(1649771887.293131) vcan0 3CB#
(1649771887.298572) vcan0 466#D42B48133813
(1649771887.303920) vcan0 4F8#CB9D1D0E
(1649771887.309364) vcan0 03A#622CC85E9B5ADA11
(1649771887.314673) vcan0 04D#1F48C5
(1649771887.319988) vcan0 23C#F226031DFD0F2437
(1649771887.325287) vcan0 651#CDFBB365079A6D10
(1649771887.331009) vcan0 21A#5A955578E605977D
(1649771887.336466) vcan0 7FB#3F890E4F613C
(1649771887.342016) vcan0 46C#994FE6
(1649771887.347904) vcan0 177#470D063CB1
(1649771887.353379) vcan0 510#4DC49F145EAD5408
(1649771887.358897) vcan0 2CC#BEEB6A0A08157F11
(1649771887.364212) vcan0 63A#
(1649771887.369697) vcan0 0F0#935EA9
(1649771887.375199) vcan0 69D#F050ED3F98CEE647
(1649771887.380718) vcan0 614#F90A1A37805A1061
(1649771887.386371) vcan0 742#E51333
(1649771887.392089) vcan0 7F8#6B72AD4D082DC328
(1649771887.397679) vcan0 2D5#66DA1731A125EB27
(1649771887.403167) vcan0 324#A93A6A39
(1649771887.408473) vcan0 0D5#EAB52919C5395E5E
(1649771887.414087) vcan0 082#CF84B4201FE70B1F
(1649771887.419711) vcan0 06A#
(1649771887.425157) vcan0 7EF#FF
(1649771887.430868) vcan0 344#EB47D82B
(1649771887.436195) vcan0 610#4590D410E5A8
(1649771887.441802) vcan0 10E#86CE645D33348516
(1649771887.447239) vcan0 0D0#9125732EA5096060
(1649771887.452568) vcan0 0DE#6A43BE3E60E94049
(1649771887.458118) vcan0 7F8#80D04C6863F84127
(1649771887.464084) vcan0 5F9#E1B63743E94DB22F
(1649771887.469521) vcan0 6E9#
(1649771887.474772) vcan0 4C4#6AC56A44D44A
(1649771887.479957) vcan0 75D#B9F362516B80D311
(1649771887.485280) vcan0 05B#9EB458282BF19A14
(1649771887.490494) vcan0 36F#
(1649771887.495697) vcan0 5AB#AE1DB427A4A5D810
(1649771887.501183) vcan0 673#079E1A386DA44053
(1649771887.506884) vcan0 466#56F2F2024FBB8C4C
(1649771887.512248) vcan0 4C9#7D
(1649771887.517834) vcan0 477#626CF04BD4E31006
(1649771887.523655) vcan0 097#4064E417F2F8BB59
(1649771887.529130) vcan0 25B#1DEA566ECAEDB111
(1649771887.534410) vcan0 30E#17222570BAA87135
(1649771887.539661) vcan0 327#5E4E4A469B
(1649771887.545100) vcan0 5F3#08CE777D59
(1649771887.550713) vcan0 14D#A95DA75316664735
(1649771887.556082) vcan0 7CF#A4874E654694
(1649771887.561552) vcan0 60E#1B78216AA696
(1649771887.567281) vcan0 421#988F2A067C76AD1A
(1649771887.572714) vcan0 539#46645F2C48E8
(1649771887.578198) vcan0 6A3#0291BD0ECB81DE6E
(1649771887.583700) vcan0 623#
(1649771887.589098) vcan0 3C5#70965263120D244D
(1649771887.594750) vcan0 1CC#29736B029B79F82A
(1649771887.600140) vcan0 740#E10D090F4ECD651D
(1649771887.605749) vcan0 6D3#F463D449F4428B67
(1649771887.611397) vcan0 257#71B938029157733D
(1649771887.616725) vcan0 543#D93FBF16E6CB53
(1649771887.622228) vcan0 415#B14D320B396A7A7F
(1649771887.627502) vcan0 03B#505EB25B007CF1
(1649771887.632950) vcan0 285#
(1649771887.638633) vcan0 0DA#EC25C67C1A588629
(1649771887.643913) vcan0 708#6825EC46DBE5331E
(1649771887.649511) vcan0 1CA#D028BF05221C2A00
(1649771887.655197) vcan0 4EA#B3
(1649771887.660678) vcan0 7F8#13B693410EA4AC01
(1649771887.666185) vcan0 467#470E2701A2
(1649771887.671689) vcan0 4DC#A2B04F42626FE3
(1649771887.677126) vcan0 157#B31BB17D
(1649771887.682573) vcan0 5F0#
(1649771887.687912) vcan0 56E#D412551E
(1649771887.693499) vcan0 111#5A4B6A0B
(1649771887.699263) vcan0 5E5#28B80F19DD1D9C62
(1649771887.704705) vcan0 299#EBC1486400F73D17
(1649771887.710241) vcan0 200#A22B
(1649771887.715650) vcan0 4C9#3FDE5A44
(1649771887.721074) vcan0 5F9#52E8
(1649771887.726726) vcan0 392#E178582600B1C942
(1649771887.732054) vcan0 252#39E0094E63
(1649771887.737673) vcan0 759#5E7198
(1649771887.743580) vcan0 2A1#1C036A773A5D
(1649771887.749050) vcan0 7C1#3B541E57C209B5
(1649771887.754533) vcan0 53A#9F782C6803D26B03
(1649771887.759779) vcan0 422#247093611B72F75B
(1649771887.765259) vcan0 0D0#04BE2E02638C16
(1649771887.770960) vcan0 315#633DE06D67
(1649771887.776289) vcan0 29B#CAD8816BF489F655
(1649771887.781859) vcan0 130#336FC46AD133DA37
(1649771887.787741) vcan0 3AE#0B91BA776F0B0E16
(1649771887.793214) vcan0 756#3115C36590CC
(1649771887.798519) vcan0 524#
(1649771887.803766) vcan0 4AE#6133313E7F350A69
(1649771887.809084) vcan0 72F#E2C1201444
(1649771887.814320) vcan0 04A#AB7F555DE5
(1649771887.819567) vcan0 4E2#DA74122C12
(1649771887.824954) vcan0 29D#E399230B4B16B456
(1649771887.830642) vcan0 65C#BB21C26CB28DE636
(1649771887.836064) vcan0 035#435AEA3559754A03
(1649771887.841391) vcan0 4BD#9F3684656BA9EB
(1649771887.846732) vcan0 78F#
(1649771887.852032) vcan0 365#03B99404AF83FC4C
(1649771887.857555) vcan0 012#956E1823F4BC0258
(1649771887.863314) vcan0 124#06234C2BC233B313
(1649771887.868751) vcan0 77C#0D4A676AD81D075F
(1649771887.874429) vcan0 7D7#8AABED150CF8040B
(1649771887.879641) vcan0 2B5#656D4F0E7267234A
(1649771887.885209) vcan0 6A4#DD100F65
(1649771887.890516) vcan0 604#F374877269699E7B
(1649771887.895756) vcan0 094#19ED9A48A630
(1649771887.901266) vcan0 6A5#9AED3573CAF7C703
(1649771887.906487) vcan0 71D#
(1649771887.911644) vcan0 589#7124E77F61B53F0E
(1649771887.916958) vcan0 162#6DAD44191784BA02
(1649771887.922372) vcan0 5C9#89EBDD
(1649771887.927532) vcan0 6D7#A1DA6D06DCCC
(1649771887.932920) vcan0 42E#45368F2E
(1649771887.938215) vcan0 58B#69AD403730E41749
(1649771887.943438) vcan0 70C#FADBDF4C
(1649771887.948774) vcan0 3A4#C2C49B3E2E79
(1649771887.954088) vcan0 520#8F2E2A
(1649771887.959273) vcan0 12F#99E20342F88E0436
(1649771887.964507) vcan0 6CF#6563
(1649771887.969891) vcan0 288#83825B3BB7B6C0
(1649771887.975342) vcan0 59B#7A33CE77260B580B
(1649771887.980528) vcan0 427#57EF6F
(1649771887.986018) vcan0 3E7#5D
(1649771887.991632) vcan0 2D8#BAA06840F84FE86B
(1649771887.996938) vcan0 753#7AAE312B82802433
(1649771888.002128) vcan0 345#7A0F29
(1649771888.007614) vcan0 735#BC576F27BD29E63C
(1649771888.013096) vcan0 0E6#74E0A618823EA442
(1649771888.018836) vcan0 307#A849FC4D2E6FCA2D
(1649771888.024243) vcan0 4D2#62CABC71B9700919
(1649771888.029684) vcan0 451#4598873B29D76649
(1649771888.035513) vcan0 1DE#21274F3531898152
(1649771888.040942) vcan0 048#B309A6058EB3841A
(1649771888.046584) vcan0 6AE#A3558939E3C5CD49
(1649771888.052083) vcan0 40D#A0EFB306F33C391B
(1649771888.057606) vcan0 79E#757BDD5DA5
(1649771888.063418) vcan0 403#D489433ED5D8536F
(1649771888.068814) vcan0 61D#8F495D086E02
(1649771888.074143) vcan0 7F5#97D9685B
(1649771888.079819) vcan0 2D4#0583A1491C235828
(1649771888.085292) vcan0 653#AAD6DC42013DEF3E
(1649771888.091055) vcan0 5E6#E402BD08F331F231
(1649771888.096398) vcan0 1AC#E66E2B4D4A
(1649771888.101708) vcan0 29A#F07B9B319DA69B5E
(1649771888.107522) vcan0 77A#737FEF4D
(1649771888.112783) vcan0 1FA#06B0
(1649771888.118397) vcan0 2D6#C28B6A1AAAC5065A
(1649771888.124008) vcan0 256#C7E85E02A96084
(1649771888.129544) vcan0 380#AB
(1649771888.135172) vcan0 3BF#59735C236BC5001F
(1649771888.140606) vcan0 314#B6262340AE556D1A
(1649771888.146299) vcan0 49B#4CFC0879157C
(1649771888.152064) vcan0 06A#AD299C1764027D01
(1649771888.157316) vcan0 4C1#5394C7
(1649771888.162632) vcan0 350#42B57D11A6
(1649771888.168125) vcan0 6DD#504E2A195DCA9156
(1649771888.173508) vcan0 57A#C30BFC473949BA1A
(1649771888.179317) vcan0 48A#A50EBB399F1F7034
(1649771888.184832) vcan0 15B#4D75DD4EF72D7177
(1649771888.190470) vcan0 001#0CAAE4696B803A4D
(1649771888.195784) vcan0 558#CF82B74E1932242C
(1649771888.201082) vcan0 56C#B121
(1649771888.206748) vcan0 737#63FE47
(1649771888.212030) vcan0 4FC#713081
(1649771888.217613) vcan0 0AE#B01BC87C
(1649771888.223538) vcan0 350#D8E44E39AC
(1649771888.229023) vcan0 7B0#A34A2733B1
(1649771888.234721) vcan0 3BF#1CB8386917B9F15E
(1649771888.240137) vcan0 069#31EB150BD575D46E
(1649771888.245481) vcan0 20D#9286
(1649771888.251334) vcan0 3D5#59EF0F34D158
(1649771888.256855) vcan0 1A9#472BCD4E580A4162
(1649771888.262534) vcan0 3FF#91CF1F674F17E4
(1649771888.268038) vcan0 14C#FB339A70FCD07932
(1649771888.273668) vcan0 68E#AD08784E4DDAAD78
(1649771888.279425) vcan0 34E#65939F57B73B5A5F
(1649771888.284928) vcan0 3B4#8CB12E4EC14D
(1649771888.290520) vcan0 378#06D730794D6F3035
(1649771888.296017) vcan0 515#1EC8EF21BE8E946B
(1649771888.301454) vcan0 629#1699D54D28
(1649771888.306865) vcan0 25D#7859C417A9AB6A
(1649771888.312223) vcan0 510#A67CE4
(1649771888.317750) vcan0 412#EC05AD
(1649771888.323538) vcan0 61D#17
(1649771888.328980) vcan0 7E7#938FBE
(1649771888.334188) vcan0 4C2#AC129937D7617F4E
(1649771888.339755) vcan0 4F8#96F0133A21130236
(1649771888.345188) vcan0 630#4A55E2188D089806
(1649771888.350915) vcan0 254#36B4
(1649771888.356256) vcan0 435#033B421047482565
(1649771888.361895) vcan0 630#
(1649771888.367722) vcan0 241#1E3EFF5229F23D06
(1649771888.373258) vcan0 762#88
(1649771888.378604) vcan0 44A#FCF56B1042
(1649771888.383854) vcan0 2FF#6474
(1649771888.389268) vcan0 03E#BC59A66A9262480F
(1649771888.394949) vcan0 070#F7718B
(1649771888.400264) vcan0 6CF#EDFC9215FFF4D35A
(1649771888.405788) vcan0 5EA#4CF12447
(1649771888.411224) vcan0 753#55BA3614B536D13E
(1649771888.416627) vcan0 51C#D9CABD0067318F3E
(1649771888.422095) vcan0 012#A9926C3612
(1649771888.427743) vcan0 767#41CCF35AA617132E
(1649771888.433134) vcan0 0BB#387A5B3D2B497622
(1649771888.438843) vcan0 3F1#D1FDE352C072D35A
(1649771888.444288) vcan0 12A#C067A73514877149
(1649771888.449909) vcan0 752#404F6A57A5061D56
(1649771888.455789) vcan0 077#5A3DEE1494
(1649771888.461357) vcan0 173#FBB66144
(1649771888.466664) vcan0 109#97CC805C
(1649771888.471947) vcan0 0B2#178892306D21280A
(1649771888.477400) vcan0 6D7#996A9E2CC8F25172
(1649771888.482829) vcan0 67F#8865254DA987895D
(1649771888.488173) vcan0 328#BD0EFB267A221638
(1649771888.493821) vcan0 655#2029330ECCAE8916
(1649771888.499559) vcan0 793#60345C1C06C18472
(1649771888.505047) vcan0 6AE#8C122058B837A35F
(1649771888.510497) vcan0 500#29A822
(1649771888.515664) vcan0 7FC#
(1649771888.521077) vcan0 28F#9B29765B0E21784D
(1649771888.526729) vcan0 222#B7A8012B
(1649771888.532114) vcan0 46C#C5FFFE10C1
(1649771888.537683) vcan0 573#8E318B4106
(1649771888.543227) vcan0 75F#0D3EED2C0EFE207B
(1649771888.548694) vcan0 14A#C635C45A4A86311A
(1649771888.554145) vcan0 7BC#FC0BD854B9A7C325
(1649771888.559634) vcan0 62F#8CDEE70EBE403F50
(1649771888.564970) vcan0 4D4#CD61B71DF63E037C
(1649771888.570358) vcan0 74C#411CEC54
(1649771888.575598) vcan0 1F9#7A7663696CD7
(1649771888.581013) vcan0 4EB#735480254AD47047
(1649771888.586535) vcan0 5F6#
(1649771888.591779) vcan0 319#8AE5AC61D5122911
(1649771888.597198) vcan0 60D#8EBAEC363CF4
(1649771888.602703) vcan0 4A2#FB34187A76693F5B
(1649771888.608018) vcan0 143#6CA842578F382C43
(1649771888.613475) vcan0 14C#472C8E0146633E7B
(1649771888.619302) vcan0 0B3#B2
(1649771888.624732) vcan0 2C9#E9F9A75EC0
(1649771888.630328) vcan0 1A5#00
(1649771888.636086) vcan0 460#9417E8466DBACC18
(1649771888.641647) vcan0 711#AAAE
(1649771888.646947) vcan0 33D#299DCE2980
(1649771888.652248) vcan0 26D#0F450837B91B
(1649771888.657513) vcan0 243#FF7E5430F7EA59
(1649771888.663224) vcan0 418#9510
(1649771888.668661) vcan0 0D7#A2B71E587D6AC500
(1649771888.674300) vcan0 6C0#3B6F
(1649771888.680058) vcan0 52D#8D65CF2D3F9C9204
(1649771888.685687) vcan0 0F2#F2CF21532FC4EA
(1649771888.690985) vcan0 7DC#B0D0C6324972C001
(1649771888.696190) vcan0 2B2#038ED636F5BC412B
(1649771888.701677) vcan0 716#ECA7
(1649771888.707430) vcan0 6B4#11FA
(1649771888.712845) vcan0 300#097A1C
(1649771888.718522) vcan0 155#E044DB61
(1649771888.724134) vcan0 014#C2CA862006C94E50
(1649771888.729717) vcan0 6A5#358D390F
(1649771888.735055) vcan0 7D0#CB28132F82
(1649771888.740361) vcan0 3A5#7877DC19BBFA344E
(1649771888.745891) vcan0 3D1#EA952214
(1649771888.751735) vcan0 7E6#119A416BE79A0A3C
(1649771888.757163) vcan0 1AE#A734E3080463B200
(1649771888.762883) vcan0 55F#8791A61C736D0C39
(1649771888.768214) vcan0 3F6#79365B099BE2887A
(1649771888.773632) vcan0 6FD#1D99DB27CEFE6E21
(1649771888.779137) vcan0 194#50B9091039956406
(1649771888.784462) vcan0 0B7#F48F9954883CED09
(1649771888.789956) vcan0 02D#0EC7D75413280374
(1649771888.795788) vcan0 5DA#FAC20D3089F72167
(1649771888.801329) vcan0 53A#8D5A
(1649771888.806737) vcan0 12A#0CE08269
(1649771888.812043) vcan0 05D#BB77A1185A
(1649771888.817572) vcan0 233#283EED13C7FB0766
(1649771888.822822) vcan0 2C2#00916C6C794B4454
(1649771888.828086) vcan0 041#0288315E6E
(1649771888.833628) vcan0 6D4#
(1649771888.839308) vcan0 02F#37F4180D69259A3F
(1649771888.844677) vcan0 31E#02981070
(1649771888.850337) vcan0 2D8#6861051B3583103B
(1649771888.855695) vcan0 693#90C28E2D
(1649771888.861170) vcan0 1FD#8E64EC3DBFBC8F0B
(1649771888.866435) vcan0 031#3808D45F73205033
(1649771888.871666) vcan0 684#E1988B2F585D2115
(1649771888.877083) vcan0 74A#065A18
(1649771888.882711) vcan0 4E0#E3B4CB23FEF75319
(1649771888.888069) vcan0 502#47C44016DBD7
(1649771888.893633) vcan0 4F4#105B97718853E139
(1649771888.899136) vcan0 6D3#
(1649771888.904567) vcan0 659#8FA5A0648A161546
(1649771888.909862) vcan0 66C#FD366579F02C6A65
(1649771888.915160) vcan0 602#488A8B7A4D1D8973
(1649771888.920472) vcan0 142#C7ACBA5722A6D108
(1649771888.925717) vcan0 28D#219E25228FCFF33A
(1649771888.931495) vcan0 690#6AA77A718573D27C
(1649771888.936972) vcan0 017#0DC7B336EB86994E
(1649771888.942572) vcan0 01B#BB6FAA27743EDA62
(1649771888.948153) vcan0 439#FF54EF28A6BA3612
(1649771888.953635) vcan0 313#96E7A07715013A53
(1649771888.958913) vcan0 3DB#621EC3461E650014
(1649771888.964227) vcan0 62E#400BD21CBB88A525
(1649771888.969829) vcan0 4D4#4A
(1649771888.975226) vcan0 3C9#E94E3926E1
(1649771888.980618) vcan0 230#CC1AA42F4B22
(1649771888.986192) vcan0 152#C060381A8C3D92
(1649771888.991680) vcan0 7D2#32F8C84FE5625934
(1649771888.997138) vcan0 1BB#FB639307979DC130
(1649771889.002428) vcan0 1A7#B502C244D5A76661
(1649771889.008062) vcan0 587#90300C075B
(1649771889.013557) vcan0 757#BF553F3020C3E917
(1649771889.019296) vcan0 090#0157F478C08ADF6E
(1649771889.024820) vcan0 29F#0BAD3D26F253CC58
(1649771889.030502) vcan0 455#7E915E16279C8063
(1649771889.036097) vcan0 38A#
(1649771889.041659) vcan0 178#DDA2DB1920BB2767
(1649771889.046934) vcan0 565#F562
(1649771889.052191) vcan0 387#47AD7061DE6A
(1649771889.057578) vcan0 461#FF2DA778F1A4F9
(1649771889.062917) vcan0 7B0#
(1649771889.068291) vcan0 6CE#41B65A7423F31A1A
(1649771889.073835) vcan0 288#4A8F9B7D12AE2A4A
(1649771889.079513) vcan0 16F#58B34433E83A72
(1649771889.084962) vcan0 15F#08F69905C5
(1649771889.090429) vcan0 3C7#B1093F7D4FAFEF6B
(1649771889.095668) vcan0 483#2D1AAD4CE4080355
(1649771889.101144) vcan0 200#D5ADFC45B0618858
(1649771889.106602) vcan0 52D#FFC31674FBC3
(1649771889.112088) vcan0 243#1E
(1649771889.117597) vcan0 200#DD52A43C70930B64
(1649771889.123475) vcan0 4C0#58CE7D021FC6
(1649771889.128941) vcan0 46B#
(1649771889.134353) vcan0 55D#8207B754E109
(1649771889.139605) vcan0 58F#C51206498F172822
(1649771889.144930) vcan0 1DC#3F79B07A0937A81D
(1649771889.150625) vcan0 621#04FBCB6E6458C560
(1649771889.156100) vcan0 77F#2FFD
(1649771889.161718) vcan0 08A#F00C6F2E4ACD3441
(1649771889.167519) vcan0 643#6A936774AEB2D53C
(1649771889.172996) vcan0 7A8#E10A9D2505BD440F
(1649771889.178535) vcan0 6E4#E6C647
(1649771889.183776) vcan0 413#024C4A71EF9D7002
(1649771889.189292) vcan0 247#F8
(1649771889.194960) vcan0 280#CD90EE70FFB9FA31
(1649771889.200262) vcan0 21E#7F335E7CA87AD42B
(1649771889.205870) vcan0 609#F347096D4C34DD53
(1649771889.211597) vcan0 3B7#FBE6B2105FBBBE14
(1649771889.217116) vcan0 3AB#6578032490E20B49
(1649771889.222520) vcan0 440#03172E1853385C4C
(1649771889.227785) vcan0 0F7#42D6CC4E3EB3
(1649771889.233228) vcan0 047#A7EB125FC72A3550
(1649771889.238956) vcan0 336#C7E42F02
(1649771889.244331) vcan0 270#FC778E127AE8
(1649771889.249916) vcan0 0B6#C61C1D3C6D741505
(1649771889.255542) vcan0 34C#CD
(1649771889.261077) vcan0 59E#8889
(1649771889.266520) vcan0 77D#313220007500BC58
(1649771889.271761) vcan0 391#B3B3A5
(1649771889.277281) vcan0 3AD#A056153DE32E9D3B
(1649771889.282957) vcan0 3CE#372C57223F26E9
(1649771889.288318) vcan0 3AE#B90E29
(1649771889.293950) vcan0 423#D120446C6FFF8515
(1649771889.299855) vcan0 741#67A64022DF24365F
(1649771889.305300) vcan0 0D0#BD1EFA124EE01229
(1649771889.310754) vcan0 07B#C3E0CE010CD4685D
(1649771889.315996) vcan0 161#E5FF484A0E0D
(1649771889.321353) vcan0 3D1#F13B775B9F4F
(1649771889.326736) vcan0 1ED#DE75D0719BE57604
(1649771889.332066) vcan0 45B#FF91A56B7E7031
(1649771889.337629) vcan0 017#EE
(1649771889.343264) vcan0 36F#37048C0F40
(1649771889.348667) vcan0 645#8EDC044B
(1649771889.354124) vcan0 3E2#CC
(1649771889.359424) vcan0 1C7#51DA
(1649771889.364807) vcan0 138#38D5
(1649771889.370454) vcan0 66A#C1B82577C58A
(1649771889.375818) vcan0 7AE#
(1649771889.381337) vcan0 591#1D5F
(1649771889.387004) vcan0 187#41FDA83A
(1649771889.392456) vcan0 648#8CDE565A2AFA6E50
(1649771889.397870) vcan0 720#6DC71668E7E8C948
(1649771889.403210) vcan0 40B#806E3F6F43F57205
(1649771889.408618) vcan0 000#68C821786A365943
(1649771889.414251) vcan0 6CE#2FC1D4067C5EF01F
(1649771889.420040) vcan0 3EA#41DE56
(1649771889.425508) vcan0 7A5#7CCA7E252DA9421F
(1649771889.431248) vcan0 0B2#F9709E7CFA262A54
(1649771889.436722) vcan0 18C#24219924AC38
(1649771889.442126) vcan0 0DF#94
(1649771889.447602) vcan0 24F#2DC28A6A
(1649771889.452971) vcan0 3CC#B97833229A
(1649771889.458181) vcan0 3BF#17C1B668A9D70624
(1649771889.464056) vcan0 65C#24A1CE30021E7033
(1649771889.469646) vcan0 4B7#2F
(1649771889.475436) vcan0 35E#64A4A60FEBD44A1C
(1649771889.480893) vcan0 7AE#970DA2548DA0F631
(1649771889.486258) vcan0 61A#776D0E176938386D
(1649771889.491508) vcan0 73F#B97A124C
(1649771889.496905) vcan0 23A#A6F5
(1649771889.502600) vcan0 55B#A29D405AB823D871
(1649771889.507909) vcan0 615#BA414825CC32
(1649771889.513459) vcan0 267#36B04803C6DDD117
(1649771889.519211) vcan0 111#B1B21C34C0C8926D
(1649771889.524649) vcan0 222#4D69891F3CC81E08
(1649771889.530058) vcan0 774#A6005775B3
(1649771889.535315) vcan0 669#BF41C677A3C0761C
(1649771889.540738) vcan0 6D1#9C86B0522D
(1649771889.546361) vcan0 622#E5BFD5383744F65D
(1649771889.552052) vcan0 305#0477C2256C0D5D19
(1649771889.557642) vcan0 288#32EB2E31994B651D
(1649771889.563222) vcan0 3D4#5914F8
(1649771889.568687) vcan0 62C#335E480BA04D8C
(1649771889.574172) vcan0 46C#53FC3171D55A4A19
(1649771889.579627) vcan0 238#791B
(1649771889.585019) vcan0 577#36E5B53899
(1649771889.590698) vcan0 654#D1A7E6725929636D
(1649771889.595866) vcan0 6BA#C536C00642
(1649771889.601405) vcan0 60F#DCFC2743E3C1AE7D
(1649771889.607155) vcan0 7DB#D957D80007
(1649771889.612629) vcan0 6DC#A76BD15748E3BA59
(1649771889.618160) vcan0 4E5#1E3E05731DEFC84E
(1649771889.623604) vcan0 60D#27388140851BA1
(1649771889.629093) vcan0 3AC#1E7F914300C29A66
(1649771889.634800) vcan0 279#59EBFD5333696C3A
(1649771889.640079) vcan0 5C4#761A2F60D38BD510
(1649771889.645647) vcan0 417#B64D
(1649771889.651434) vcan0 087#
(1649771889.656944) vcan0 39C#AC
(1649771889.662366) vcan0 59C#9F5F0677AA9BFD0D
(1649771889.667578) vcan0 261#2FB79E3C0E2E
(1649771889.673004) vcan0 524#0EF071779D77811B
(1649771889.678370) vcan0 53D#D0E0ED5501A3C905
(1649771889.684078) vcan0 587#D52E9F169E41
(1649771889.689705) vcan0 298#9045C368203BEB4A
(1649771889.695582) vcan0 21B#84F20335B87DFD4F
(1649771889.701203) vcan0 52C#
(1649771889.706501) vcan0 5FB#7286EE205C984F0F
(1649771889.711699) vcan0 5A0#6A
(1649771889.717216) vcan0 3EF#611209732CD16514
(1649771889.723009) vcan0 1E1#2D
(1649771889.728349) vcan0 678#06D1
(1649771889.734032) vcan0 78E#303C7323A941
(1649771889.739944) vcan0 621#61BF6F5A
(1649771889.745578) vcan0 3E5#155EA518E021FF00
(1649771889.750996) vcan0 375#3CBA4E1015E1B468
(1649771889.756292) vcan0 229#D97B3C401896DE
(1649771889.761758) vcan0 720#4467440901C9162B
(1649771889.767613) vcan0 16B#6958
(1649771889.773184) vcan0 674#F470D853029E342A
(1649771889.779017) vcan0 005#ACDFA634
(1649771889.784528) vcan0 3D9#7331AE75BE971121
(1649771889.790240) vcan0 4A9#9EB910221E48AD23
(1649771889.795652) vcan0 411#3329620C3A96085F
(1649771889.801030) vcan0 481#532CE753A12BE32A
(1649771889.806614) vcan0 346#A2F4F955B1B420
(1649771889.811835) vcan0 709#952471777EEDE154
(1649771889.817209) vcan0 67A#808B167F80B6DA21
(1649771889.822470) vcan0 2AD#A674D411861E5812
(1649771889.828167) vcan0 23A#44B66933E3569524
(1649771889.833788) vcan0 5A3#019F
(1649771889.839164) vcan0 3BD#EE3FC63C
(1649771889.844438) vcan0 540#E0
(1649771889.850104) vcan0 7D9#3755
(1649771889.855824) vcan0 58E#605C5A4308BC7976
(1649771889.861265) vcan0 755#88
(1649771889.866997) vcan0 30D#8970F034475D0239
(1649771889.872513) vcan0 549#2AB4975DECC28147
(1649771889.878128) vcan0 6B0#A06C3F256D7AAE45
(1649771889.883355) vcan0 35F#AC525D309F88C21B
(1649771889.888751) vcan0 0D0#2529EA3CA9188C60
(1649771889.894132) vcan0 70E#8B87044F9C944E27
(1649771889.899972) vcan0 029#A550C81D7F07EF4E
(1649771889.905219) vcan0 3CD#82598771DA1EFE4A
(1649771889.910380) vcan0 25C#227C0004A537F111
(1649771889.916032) vcan0 0D9#91FA72598A87A64C
(1649771889.921598) vcan0 378#F7
(1649771889.926892) vcan0 3C0#7727B4
(1649771889.932221) vcan0 32F#3945F7333EFA1C3A
(1649771889.937801) vcan0 6F9#DA8E6B61
(1649771889.943274) vcan0 0B0#A2CEAB727D7C2A6A
(1649771889.948636) vcan0 2AD#589B2835
(1649771889.954332) vcan0 22F#AF84872709E37C19
(1649771889.960266) vcan0 7C6#
(1649771889.965888) vcan0 672#166A252432FA6460
(1649771889.971476) vcan0 12E#C226D0335D6CCC43
(1649771889.976688) vcan0 229#9B66E97D23B14851
(1649771889.982287) vcan0 0BF#4678057570E9
(1649771889.987830) vcan0 4F5#ED65486AA277D913
(1649771889.993185) vcan0 70C#ACC46F293B
(1649771889.998792) vcan0 0BF#44440C7086605B73
(1649771890.004121) vcan0 09B#C42B8F150DAF9E
(1649771890.009700) vcan0 362#3FA9033290DCD209
(1649771890.015050) vcan0 767#ED
(1649771890.020408) vcan0 3FC#B4BA4E69BC745E38
(1649771890.025896) vcan0 4FF#2C5E7C38F4796609
(1649771890.031699) vcan0 1E2#97F13F1DEEE8E911
(1649771890.037238) vcan0 55F#294A79
(1649771890.042925) vcan0 79E#A43E2B0E39C89869
(1649771890.048245) vcan0 545#4777373BA7585D7D
(1649771890.053828) vcan0 043#37353007AB27
(1649771890.059095) vcan0 088#3C31037184
(1649771890.064404) vcan0 5AE#
(1649771890.069999) vcan0 6EA#A14C9C54CC98AB7E
(1649771890.075529) vcan0 386#BA819510E5887F76
(1649771890.081011) vcan0 47B#03674F
(1649771890.086397) vcan0 251#53BCCB3997974900
(1649771890.091859) vcan0 011#3EF0A67D5410A420
(1649771890.097463) vcan0 420#FF37A179A844
(1649771890.102699) vcan0 39B#2D71F75549D1FE79
(1649771890.107940) vcan0 52B#F6A3344515749C7D
(1649771890.113333) vcan0 1DA#E10C487C60D5CE
(1649771890.119026) vcan0 6D0#455E4E6B4B233944
(1649771890.124342) vcan0 27F#65176C14D0B48057
(1649771890.129969) vcan0 2F0#674CCA57017B4D5F
(1649771890.135812) vcan0 752#568BF17F725B
(1649771890.141389) vcan0 21C#1BA0C65AB7
(1649771890.146703) vcan0 491#00D7ED2DBC812D29
(1649771890.151923) vcan0 3B5#D2F5C9268F35
(1649771890.157421) vcan0 38D#EF0A12
(1649771890.163141) vcan0 14F#A9BDD95C
(1649771890.168486) vcan0 67D#9EA05C0D6D991619
(1649771890.174125) vcan0 0C6#6F14647818B0
(1649771890.180000) vcan0 1AC#8A0B3228C8
(1649771890.185550) vcan0 31A#7F91CF48AB
(1649771890.190820) vcan0 4ED#68114D7FA3E07413
(1649771890.196045) vcan0 375#3216B833024FD376
(1649771890.201556) vcan0 1ED#60E9
(1649771890.207389) vcan0 256#0A87F42ED3B82846
(1649771890.212757) vcan0 417#41523F5FDD24111D
(1649771890.218377) vcan0 4AF#
(1649771890.224129) vcan0 675#23CAF0708F69E141
(1649771890.229438) vcan0 425#3BF9
(1649771890.234746) vcan0 421#B52920
(1649771890.240057) vcan0 1DD#98F63011CA1B8E06
(1649771890.245616) vcan0 10A#07B7A67F60EBCC57
(1649771890.251274) vcan0 701#34
(1649771890.256627) vcan0 5BA#F527970769
(1649771890.262298) vcan0 525#C4B874689A63D124
(1649771890.268107) vcan0 56A#29CDB2668F6951
(1649771890.273682) vcan0 689#A1B2FC38
(1649771890.278997) vcan0 107#404A015EE4E266
(1649771890.284313) vcan0 43F#AFFEF459497D971F
(1649771890.289845) vcan0 0D1#A9686477D3A7
(1649771890.295260) vcan0 3C7#EBAA4F0782592373
(1649771890.300689) vcan0 352#EB
(1649771890.306328) vcan0 7CB#
(1649771890.311968) vcan0 797#C416F65F21EE8754
(1649771890.317338) vcan0 79F#CB902B18A728
(1649771890.322831) vcan0 5BD#8B0B085BFCC10475
(1649771890.328143) vcan0 3E5#453F9C14B63C3675
(1649771890.333454) vcan0 7F0#89E4FF11B8B3CF16
(1649771890.338830) vcan0 4CC#3A0DF3091E
(1649771890.344148) vcan0 256#9618511B21
(1649771890.349627) vcan0 5D5#57DF22046D7DD9
(1649771890.355439) vcan0 5E2#8E6B610782C5140C
(1649771890.360913) vcan0 781#29EEB5133E651B61
(1649771890.366647) vcan0 765#3A272056
(1649771890.371884) vcan0 3EF#01304F70DFC35332
(1649771890.377392) vcan0 66E#977723493AC31718
(1649771890.383141) vcan0 3FF#58
(1649771890.388542) vcan0 5F7#77385322CCD3084E
(1649771890.394185) vcan0 096#3951E20078DE5129
(1649771890.400070) vcan0 5E9#FAA366356BCD9A
(1649771890.405588) vcan0 121#A932B6
(1649771890.410879) vcan0 3D8#D183A338
(1649771890.416133) vcan0 063#A653
(1649771890.421565) vcan0 05C#0B9267385C6CE046
(1649771890.427265) vcan0 00F#B172B50A
(1649771890.432724) vcan0 152#D389BD54E811987A
(1649771890.438369) vcan0 2F6#61F0E923E0D00D5E
(1649771890.443661) vcan0 7D4#4B9EA865F550B405
(1649771890.449165) vcan0 67F#7BE13E43
(1649771890.454370) vcan0 2D8#1E42DD353CEBC736
(1649771890.459668) vcan0 11E#0DBA1757
(1649771890.465043) vcan0 102#D74DF71612B1F644
(1649771890.470633) vcan0 17D#1867AB4BCFFAA37F
(1649771890.475933) vcan0 3B1#B80C3C7AA72E3422
(1649771890.481474) vcan0 3F8#87FF4100CC63EC53
(1649771890.487225) vcan0 174#C1B4
(1649771890.492664) vcan0 6C7#4A6A2B749F997E41
(1649771890.498152) vcan0 389#DB844678A714973D
(1649771890.503443) vcan0 22D#22F6AD0D2FA3A208
(1649771890.508893) vcan0 302#4154994D7FE4C572
(1649771890.514560) vcan0 482#4EDF697233700715
(1649771890.519955) vcan0 445#DA9E3B373D78
(1649771890.525272) vcan0 11F#09DC
(1649771890.531193) vcan0 434#8732261CFBAAB151
(1649771890.536611) vcan0 707#9B44
(1649771890.542019) vcan0 13A#37377C50678B
(1649771890.547419) vcan0 05F#972ECC306193B239
(1649771890.552679) vcan0 153#E077782CD5752149
(1649771890.558010) vcan0 632#08E6285E78EA5751
(1649771890.563467) vcan0 335#B5620E
(1649771890.568825) vcan0 345#E9A69618795F4A6A
(1649771890.574467) vcan0 789#
(1649771890.579694) vcan0 642#
(1649771890.585173) vcan0 086#E44A9227E6207835
(1649771890.590462) vcan0 5B2#47B42A6F05EF7220
(1649771890.595998) vcan0 454#DB649469863A6E6E
(1649771890.601514) vcan0 357#FE24C6
(1649771890.607252) vcan0 7C6#E1F2615C
(1649771890.612679) vcan0 673#85524E14FC957A27
(1649771890.618236) vcan0 33B#8D8C92037DE9C36E
(1649771890.624091) vcan0 40A#FAA82C6E90C4197A
(1649771890.629670) vcan0 605#76E5912FB773AC4F
(1649771890.634940) vcan0 55A#BD621F70AE69E144
(1649771890.640279) vcan0 5E6#35A44F333D49E574
(1649771890.645699) vcan0 27B#C90FF3
(1649771890.651498) vcan0 0E7#4DD596285A177079
(1649771890.656810) vcan0 475#57AD
(1649771890.662472) vcan0 4CC#2EF9C624
(1649771890.668057) vcan0 791#67F5BF2697D51549
(1649771890.673699) vcan0 607#4E49C2186203D016
(1649771890.678934) vcan0 49B#106DB15B813A6E2F
(1649771890.684229) vcan0 3A3#BE8353241F
(1649771890.689650) vcan0 279#61689902602B0136
(1649771890.695021) vcan0 633#BB42712FA832E902
(1649771890.700431) vcan0 581#5942
(1649771890.705792) vcan0 1F6#241BEB218709E6
(1649771890.711613) vcan0 5AF#1EDFFB54B7735919
(1649771890.717237) vcan0 368#1977293004600B14
(1649771890.722643) vcan0 478#859A79431C483559
(1649771890.727838) vcan0 56F#3BCE3B5D
(1649771890.733342) vcan0 1CC#48FBF352FF47AF3D
(1649771890.739073) vcan0 44A#A77A98
(1649771890.744527) vcan0 615#
(1649771890.750154) vcan0 087#9361805337D6DE47
(1649771890.756014) vcan0 7C8#EE
(1649771890.761688) vcan0 11E#343BFE05973DDA
(1649771890.767013) vcan0 530#B3850F669F9A1838
(1649771890.772355) vcan0 3FE#876A0B55CAA55878
(1649771890.777864) vcan0 28A#
(1649771890.783708) vcan0 3D3#
(1649771890.789191) vcan0 571#F429C044F81D5D47
(1649771890.794867) vcan0 3F6#2FF43B0FBE6BE1
(1649771890.800230) vcan0 439#EE46D4585735F756
(1649771890.805878) vcan0 724#EE72D1
(1649771890.811136) vcan0 7DD#F4
(1649771890.816372) vcan0 48F#A5F1E75119D74C30
(1649771890.821710) vcan0 74C#EED5725E1FB39A7E
(1649771890.827059) vcan0 7DE#0885C07B4F6DB56E
(1649771890.832454) vcan0 347#488B12363DC73F1D
(1649771890.837892) vcan0 284#FB322104BD067E
(1649771890.843355) vcan0 595#153C7570B9BC9837
(1649771890.848843) vcan0 40C#0E61AB
(1649771890.854265) vcan0 7A5#C49FA1
(1649771890.859457) vcan0 17F#4ECBA05BCB58432E
(1649771890.864895) vcan0 0D7#EA0BDE2CB6B80916
(1649771890.870545) vcan0 7CA#0526BF
(1649771890.875771) vcan0 7F0#4E625B60747AE041
(1649771890.881223) vcan0 0C5#32815E5B5AEEE235
(1649771890.886961) vcan0 732#13AB7B6D3F0B3A
(1649771890.892301) vcan0 44A#285F
(1649771890.897667) vcan0 425#24089669A4F50A4C
(1649771890.902940) vcan0 056#6F4E
(1649771890.908108) vcan0 4AE#E4B9FA5B78C41139
(1649771890.913401) vcan0 34C#895F2D7C3C2BEA38
(1649771890.918754) vcan0 137#B1A5CA7AFCC1AB
(1649771890.924017) vcan0 720#56B08E
(1649771890.929520) vcan0 42A#9171B17F74501742
(1649771890.935174) vcan0 78B#64645900B0132F75
(1649771890.940595) vcan0 7A7#54093A41FD5F632E
(1649771890.945868) vcan0 7FA#2B6154
(1649771890.951733) vcan0 21D#20798267699D7F32
(1649771890.957264) vcan0 2F9#A6C8696B308C944C
(1649771890.963014) vcan0 280#2C4E4068A0F13D
(1649771890.968378) vcan0 53A#F257
(1649771890.973909) vcan0 1EB#D8C97120
(1649771890.979529) vcan0 23E#27D53971E5695064
(1649771890.984969) vcan0 2C4#E2C9B312BEDAE039
(1649771890.990366) vcan0 63F#668F51685CE8B050
(1649771890.996100) vcan0 61D#C68530031641
(1649771891.001623) vcan0 12F#46CDF454AF7BBC73
(1649771891.007279) vcan0 4C3#4F6D
(1649771891.012739) vcan0 1F4#61CB
(1649771891.018385) vcan0 6C6#5735E86B04297B60
(1649771891.024050) vcan0 376#E992CB443A5E7E3B
(1649771891.029490) vcan0 0FA#F9385F753A1F927D
(1649771891.034711) vcan0 7D9#9607434EF7CDDE35
(1649771891.039944) vcan0 0E6#0D0F3F3E15B20861
(1649771891.045339) vcan0 3C8#C52DC554
(1649771891.050999) vcan0 7C6#88EA0826
(1649771891.056293) vcan0 056#9B854A371CEF853E
(1649771891.061813) vcan0 323#2018
(1649771891.067045) vcan0 570#D36CCA116BAEEA0F
(1649771891.072378) vcan0 7D5#A5CD7C0DAE8FD319
(1649771891.077802) vcan0 62C#A55DB24F123F5F12
(1649771891.083179) vcan0 298#27F167
(1649771891.088574) vcan0 107#ECD61D02CD408E71
(1649771891.093749) vcan0 201#8852FB38
(1649771891.099124) vcan0 75E#7409E2
(1649771891.104539) vcan0 315#1AD18A39
(1649771891.110117) vcan0 49E#F106B82373D4FB50
(1649771891.116012) vcan0 3BA#2164CF6AE651
(1649771891.121287) vcan0 1D1#F890B849690C28
(1649771891.126645) vcan0 67A#CA4A692781779869
(1649771891.132130) vcan0 10C#4EB8265B0D5B
(1649771891.137495) vcan0 32A#6475966B885A64
(1649771891.143092) vcan0 2FA#091DA3721076E017
(1649771891.148451) vcan0 06D#96CEAD
(1649771891.153994) vcan0 411#7E410717CB0F02
(1649771891.159724) vcan0 21D#B1615B01EE538F0D
(1649771891.164993) vcan0 766#5860B747E095CB04
(1649771891.170442) vcan0 4C8#610D
(1649771891.176064) vcan0 4D8#
(1649771891.181464) vcan0 087#8B0ABA7981B3
(1649771891.187052) vcan0 51E#9129F579
(1649771891.192316) vcan0 5B8#96723205C9410E
(1649771891.197780) vcan0 5AE#9451105A
(1649771891.203648) vcan0 1B4#BACB32031A
(1649771891.208941) vcan0 5EE#FB56
(1649771891.214647) vcan0 734#8B30363C0CA4B252
(1649771891.220072) vcan0 20C#0E54083D93FACF74
(1649771891.225468) vcan0 7B2#15AEE456D1EC1000
(1649771891.231213) vcan0 62E#5CF2373FE69B
(1649771891.236595) vcan0 7CE#AFDDB8
(1649771891.242389) vcan0 107#481529
(1649771891.248146) vcan0 288#D633
(1649771891.253399) vcan0 514#2C
(1649771891.259147) vcan0 72D#5488033C3A190D
(1649771891.264472) vcan0 524#CD13
(1649771891.270025) vcan0 2FC#A7E9
(1649771891.275529) vcan0 189#105D980E
(1649771891.281136) vcan0 0F7#D3069E1BFE592E49
(1649771891.286934) vcan0 202#BACCE2478A4C4F01
(1649771891.292399) vcan0 51D#
(1649771891.297690) vcan0 361#79EEB9798E7A3B5F
(1649771891.303034) vcan0 3E4#C893487C08C19C05
(1649771891.308355) vcan0 330#DEBD736A2C8E
(1649771891.313956) vcan0 178#564F85310103
(1649771891.319389) vcan0 38A#586C9B6081C4
(1649771891.324634) vcan0 725#7F1E34252751891A
(1649771891.330068) vcan0 747#B19DD81B658C235A
(1649771891.335533) vcan0 3C9#96
(1649771891.340847) vcan0 2DD#
(1649771891.346427) vcan0 3DD#C9
(1649771891.352245) vcan0 517#39DD64279096F947
(1649771891.357581) vcan0 52E#91997C78B8E03B09
(1649771891.363023) vcan0 0F5#39A541651AC07633
(1649771891.368379) vcan0 116#4111004E5D08524E
(1649771891.374080) vcan0 6F2#C294
(1649771891.380032) vcan0 1A3#E6110C6D810CFE72
(1649771891.385280) vcan0 069#4243524946AC4C11
(1649771891.390912) vcan0 120#54FB195A38B6AE47
(1649771891.396256) vcan0 0B4#C84CA80FE24D6801
(1649771891.401735) vcan0 51D#9A2EA40A12DE7073
(1649771891.407472) vcan0 443#2D9EE7
(1649771891.412911) vcan0 78B#B76DE0047D46E871
(1649771891.418626) vcan0 661#39E18B770480750D
(1649771891.424191) vcan0 5D2#858C73003BDEA037
(1649771891.429420) vcan0 6BE#828AED48DE7FE40E
(1649771891.435172) vcan0 2D4#1636935688FB
(1649771891.440608) vcan0 663#6A49195C8063EF7E
(1649771891.446223) vcan0 138#93416072
(1649771891.452053) vcan0 3D7#
(1649771891.457710) vcan0 72E#E029E7428FEDEF6C
(1649771891.463502) vcan0 305#946D657AD858BA78
(1649771891.468921) vcan0 638#13375B30F6F45237
(1649771891.474172) vcan0 1E1#D4743746B5
(1649771891.479586) vcan0 76B#3DD0580ECFA5D640
(1649771891.485076) vcan0 5C9#4F09C63F019766
(1649771891.490552) vcan0 1AB#7DEC
(1649771891.496100) vcan0 2A2#E5C0
(1649771891.501651) vcan0 7DE#60A78D46E3
(1649771891.507548) vcan0 5DE#BB535803
(1649771891.513037) vcan0 70E#0CE9894CEFD86A00
(1649771891.518425) vcan0 464#
(1649771891.524028) vcan0 0CB#9F39
(1649771891.529642) vcan0 78A#96CDF82335290D7E
(1649771891.535429) vcan0 5D1#B806E0
(1649771891.540777) vcan0 165#44721B214331687E
(1649771891.546435) vcan0 262#272C060940
(1649771891.552189) vcan0 699#569C
(1649771891.557858) vcan0 2B1#9716
(1649771891.563163) vcan0 342#E6EA5A360EECA474
(1649771891.568480) vcan0 21E#A3223727A8
(1649771891.573846) vcan0 773#DE023C0644F57606
(1649771891.579270) vcan0 24D#B8ADF44DB20B
(1649771891.584687) vcan0 133#F63CC15A95833825
(1649771891.590183) vcan0 1A1#D52BCF753B68557F
(1649771891.595882) vcan0 0FF#E2A5BD63B1F33730
(1649771891.601276) vcan0 58D#C74A461DCF300D53
(1649771891.606514) vcan0 0B5#DD1CB247D4C2C73C
(1649771891.611691) vcan0 232#
(1649771891.617088) vcan0 7BA#EAB6FD2407DA456A
(1649771891.622801) vcan0 0F0#B9E5
(1649771891.628028) vcan0 49E#B8FD546740BEBB38
(1649771891.633619) vcan0 3CC#7B261138CC744D75
(1649771891.639491) vcan0 1B8#7D688525453FB546
(1649771891.645055) vcan0 0D7#1570C219
(1649771891.650422) vcan0 0F1#60CC
(1649771891.655612) vcan0 473#C80413492DFC760A
(1649771891.660987) vcan0 037#34D6
(1649771891.666724) vcan0 054#4B2B324CF3A40543
(1649771891.672056) vcan0 69D#3363C17B
(1649771891.677638) vcan0 291#35DF30574A446C49
(1649771891.683480) vcan0 60B#8F83
(1649771891.688955) vcan0 2F6#6FE8D679
(1649771891.694472) vcan0 097#0A277B000A4DB65B
(1649771891.699781) vcan0 5AC#37492D
(1649771891.705194) vcan0 785#0CD7E560DA07A218
(1649771891.710854) vcan0 358#CDACA75BF5B901
(1649771891.716223) vcan0 35B#
(1649771891.721800) vcan0 1AE#37C2B63A
(1649771891.727467) vcan0 347#9CCEDD0E3D46
(1649771891.733037) vcan0 16B#252A3D3E02BA1400
(1649771891.738483) vcan0 3DA#0C07CB5B87893249
(1649771891.743725) vcan0 502#6BAF02
(1649771891.749137) vcan0 7AE#626C8758064B28
(1649771891.754576) vcan0 0CE#FC042A262AB49F0E
(1649771891.759834) vcan0 12F#1732EA7FDDC2D316
(1649771891.765380) vcan0 4EF#96B2B0713678F14F
(1649771891.771207) vcan0 214#74BE
(1649771891.776742) vcan0 03D#812D4A7A18A46C0E
(1649771891.782216) vcan0 1C8#9F2D9F57CBB67B3D
(1649771891.787561) vcan0 4D0#531B617D7EF4EF34
(1649771891.792976) vcan0 381#853F18684F
(1649771891.798662) vcan0 0E4#79
(1649771891.803978) vcan0 5DC#
(1649771891.809306) vcan0 6DE#02136800F300
(1649771891.815034) vcan0 0B9#7274646FF6F8
(1649771891.820307) vcan0 20F#0E9D7236
(1649771891.825940) vcan0 681#A2AAD521525BD157
(1649771891.831304) vcan0 7B7#D04FC10C38
(1649771891.836721) vcan0 5AA#88F7C8248E
(1649771891.841992) vcan0 3D6#A1
(1649771891.847884) vcan0 292#7E
(1649771891.853407) vcan0 518#
(1649771891.858957) vcan0 0F6#C73E6726057B
(1649771891.864256) vcan0 0CA#DC6E72094B1F
(1649771891.869717) vcan0 683#9D7A95643B4E9F70
(1649771891.875040) vcan0 774#7359DD6E1F2D9E3F
(1649771891.880414) vcan0 1C3#AD1BD53E9A2D4C69
(1649771891.885808) vcan0 0FD#4C6FB9758F53A27C
(1649771891.891261) vcan0 1E0#FF84607BF89EC474
(1649771891.896632) vcan0 34A#C9E425
(1649771891.902276) vcan0 639#45
(1649771891.907418) vcan0 767#4EC6
(1649771891.912598) vcan0 7A1#25F4F15115DF2E0A
(1649771891.917817) vcan0 35A#340CCD491D658068
(1649771891.923238) vcan0 694#B792
(1649771891.928562) vcan0 431#20DBB13E
(1649771891.933942) vcan0 5CE#
(1649771891.939792) vcan0 783#5985E9
(1649771891.945304) vcan0 564#BF1C9F1BCBBC6269
(1649771891.951071) vcan0 2C1#B662B54A62E2F62E
(1649771891.956403) vcan0 3F9#77C12539532F4C5B
(1649771891.961659) vcan0 474#7194CC430943EC31
(1649771891.967292) vcan0 58E#9ACAFB73BFF1F267
(1649771891.972636) vcan0 12C#D0077759FB764257
(1649771891.978238) vcan0 5DB#14004F415E1D2016
(1649771891.983554) vcan0 6AE#1A931F1212142A0C
(1649771891.989017) vcan0 20C#DED08C75CD645E5B
(1649771891.994615) vcan0 2E6#2F47550A
(1649771892.000135) vcan0 26F#33E6092AE42E60
(1649771892.005344) vcan0 653#ED714C6C
(1649771892.011039) vcan0 1CD#A0BDF539F9CA8E
(1649771892.016369) vcan0 242#
(1649771892.021970) vcan0 24B#7B05D615F9D85A6C
(1649771892.027665) vcan0 776#0BED847882
(1649771892.033157) vcan0 06E#50AECE5155DB754B
(1649771892.038851) vcan0 17D#3592331AED7B3D0B
(1649771892.044074) vcan0 626#D1AA9D4579D40C66
(1649771892.049342) vcan0 30D#5AA00F38DA948335
(1649771892.054616) vcan0 145#D35F1216883B2825
(1649771892.060038) vcan0 36B#A523DE24B6A59E58
(1649771892.065577) vcan0 3D0#AF
(1649771892.071007) vcan0 1B6#C9F4CC47250A5E38
(1649771892.076341) vcan0 1A4#7AE5D303211BE459
(1649771892.081895) vcan0 098#0E972165BF965E15
(1649771892.087720) vcan0 017#386B6B7B24E35814
(1649771892.092958) vcan0 69D#FE77DC
(1649771892.098599) vcan0 18D#6BF3
(1649771892.103959) vcan0 19A#
(1649771892.109268) vcan0 031#B1083346E8014056
(1649771892.114897) vcan0 518#0D0C9E0EBC469931
(1649771892.120237) vcan0 093#DD617D0B2B395B
(1649771892.125807) vcan0 136#EACFB9324D59BE12
(1649771892.131718) vcan0 2CB#723C17
(1649771892.136962) vcan0 6B6#
(1649771892.142525) vcan0 442#3C3D1332DC05B5
(1649771892.148031) vcan0 3C7#47638B73F99B5F27
(1649771892.153603) vcan0 148#E19D9F7D603E3804
(1649771892.158906) vcan0 172#1C85D135050A5A6F
(1649771892.164379) vcan0 375#3043B50CAB04294F
(1649771892.169962) vcan0 7E5#F85DE761B11A4C4D
(1649771892.175913) vcan0 63E#1AB45345F494344F
(1649771892.181123) vcan0 6DB#374555561DDB
(1649771892.186527) vcan0 21D#FAE089
(1649771892.191976) vcan0 25E#DD
(1649771892.197374) vcan0 039#06527440AB19923E
(1649771892.203145) vcan0 1AC#B023
(1649771892.208579) vcan0 61B#
(1649771892.214299) vcan0 1FB#B2B8CE3639
(1649771892.219767) vcan0 22F#2D5DD9360A71D55E
(1649771892.225002) vcan0 232#284CAA294F
(1649771892.230631) vcan0 4D8#3362
(1649771892.235973) vcan0 163#DC
(1649771892.241264) vcan0 3CF#473B
(1649771892.246660) vcan0 404#9D32866320122F
(1649771892.252086) vcan0 5D7#21B0B167D33F4D48
(1649771892.257523) vcan0 42F#0C08F2
(1649771892.263210) vcan0 59F#6977207DD147FC42
(1649771892.268455) vcan0 79F#20
(1649771892.273841) vcan0 0B3#AE4335
(1649771892.279611) vcan0 264#B2836571348E0716
(1649771892.285035) vcan0 36D#B09BB94E713F0404
(1649771892.290595) vcan0 5F0#91513302C7E3EC38
(1649771892.296074) vcan0 2B7#9A23
(1649771892.301620) vcan0 285#45157667244008
(1649771892.307470) vcan0 0E1#F58704668098F10B
(1649771892.312680) vcan0 03F#F7C48215F2
(1649771892.318332) vcan0 269#08A3A86FCD
(1649771892.323574) vcan0 730#018BCD349D62371D
(1649771892.328911) vcan0 5B3#0E
(1649771892.334453) vcan0 4FF#
(1649771892.339865) vcan0 552#9D2EB50ED8
(1649771892.345390) vcan0 6AC#FC9F
(1649771892.350889) vcan0 090#0D60
(1649771892.356345) vcan0 407#C161830B
(1649771892.361612) vcan0 5AA#3EA3506BDAA4171A
(1649771892.367429) vcan0 383#77074F3736115D14
(1649771892.372896) vcan0 4F1#D9143037F0
(1649771892.378584) vcan0 525#A669F6
(1649771892.384015) vcan0 748#50F206
(1649771892.389563) vcan0 425#81052E24B5AC987E
(1649771892.395032) vcan0 23E#84CDBB64466ECD0D
(1649771892.400289) vcan0 293#B614585A3D
(1649771892.405665) vcan0 40E#175D3172
(1649771892.411425) vcan0 634#C770025C253B6C09
(1649771892.416856) vcan0 613#
(1649771892.422523) vcan0 1E4#B13D52072C890C16
(1649771892.428007) vcan0 6FF#21
(1649771892.433595) vcan0 24D#DA0F
(1649771892.439311) vcan0 231#D2EA7D02C4BC572C
(1649771892.444690) vcan0 4A4#01757104B2405012
(1649771892.450397) vcan0 77D#44A0F559B19D4508
(1649771892.456158) vcan0 6A6#D6D8B111B9442E22
(1649771892.461697) vcan0 6AC#F2EF322090184D6F
(1649771892.467423) vcan0 4A6#BCA159
(1649771892.472875) vcan0 5A4#CA362579F21F004C
(1649771892.478636) vcan0 580#7E9CB040
(1649771892.484115) vcan0 402#
(1649771892.489571) vcan0 6D8#5971EA3A553E
(1649771892.495071) vcan0 38E#06DCC84A34A2D827
(1649771892.500420) vcan0 2A8#EDE6064A54B90214
(1649771892.505911) vcan0 2C7#
(1649771892.511785) vcan0 483#13
(1649771892.517302) vcan0 47E#1A829D2BFE11E173
(1649771892.523036) vcan0 081#AF792A5484D41B33
(1649771892.528356) vcan0 5E8#2A05B65B
(1649771892.533629) vcan0 79A#166B04
(1649771892.539459) vcan0 020#5C456C21C9AA5876
(1649771892.544819) vcan0 3F9#1D645B0AC00E4D0A
(1649771892.550530) vcan0 32A#2E6E
(1649771892.556060) vcan0 1A3#D569
(1649771892.561651) vcan0 31F#2098552CA1BB9B56
(1649771892.567443) vcan0 287#2590B7096FB0710E
(1649771892.572837) vcan0 7F4#30DDF25D8EE72953
(1649771892.578308) vcan0 3D3#B78ABD4CF393
(1649771892.583597) vcan0 762#BC3EE7
(1649771892.588955) vcan0 45D#1C9A591087FF492F
(1649771892.594367) vcan0 0DC#3507B6167F82424C
(1649771892.599724) vcan0 18C#A008B704ACB41746
(1649771892.605216) vcan0 4FA#
(1649771892.610746) vcan0 290#F117
(1649771892.616097) vcan0 5C1#12
(1649771892.621352) vcan0 567#8835752FC9CC7B58
(1649771892.626892) vcan0 4DD#2558885E
(1649771892.632197) vcan0 71E#C2
(1649771892.637738) vcan0 28B#7972CF7718A4C9
(1649771892.643501) vcan0 101#C458E137FB75AC6E
(1649771892.648900) vcan0 3DA#7D
(1649771892.654520) vcan0 183#EE30F871445FD806
(1649771892.659852) vcan0 28F#D9
(1649771892.665176) vcan0 7CA#BF
(1649771892.670713) vcan0 2A5#E2952A26
(1649771892.676048) vcan0 725#BEB1BC2C
(1649771892.681612) vcan0 69B#C9DDE26B9CF7C72E
(1649771892.687491) vcan0 752#986D741D2CBBA54E
(1649771892.692959) vcan0 79E#9789C52D21
(1649771892.698637) vcan0 083#6528317A12
(1649771892.704113) vcan0 586#0853321251857202
(1649771892.709403) vcan0 79F#F879162E450AB5
(1649771892.715027) vcan0 4AC#09CCE453D1D37C51
(1649771892.720302) vcan0 67E#820D964B1925BE
(1649771892.725729) vcan0 1FF#B61C866351414046
(1649771892.731435) vcan0 1D8#7EFCE51476219653
(1649771892.736836) vcan0 563#97EAEE46E6
(1649771892.742493) vcan0 09A#F840AE622176215A
(1649771892.748185) vcan0 43B#
(1649771892.753441) vcan0 3C7#20A6E9637370250B
(1649771892.759111) vcan0 545#4544A25CC3CB2703
(1649771892.764487) vcan0 7F0#DDF0E537F0919D
(1649771892.770054) vcan0 513#41D3DD
(1649771892.775537) vcan0 7E1#6280840E446DDD58
(1649771892.781040) vcan0 5D4#2A83A52C6F96D85D
(1649771892.786724) vcan0 5F6#900C
(1649771892.792125) vcan0 022#0D56
(1649771892.797383) vcan0 56C#5DA43472B102247E
(1649771892.802958) vcan0 656#75CE
(1649771892.808263) vcan0 269#36F0
(1649771892.813762) vcan0 4E5#68D6AE11C6640471
(1649771892.819557) vcan0 337#0AD2E1490CE9AE7B
(1649771892.824922) vcan0 1C3#7B7F8759
(1649771892.830529) vcan0 156#ECF9DD6C78710F0A
(1649771892.836140) vcan0 40D#61A51E7179114845
(1649771892.841515) vcan0 426#2B146C437CBA0842
(1649771892.846882) vcan0 260#
(1649771892.852237) vcan0 1F2#46E4F97FD76E8752
(1649771892.857530) vcan0 471#9DD38B43A85F6273
(1649771892.863156) vcan0 178#B448116F3CD382
(1649771892.868572) vcan0 2DB#F612BD333114D009
(1649771892.874180) vcan0 43A#A985
(1649771892.880094) vcan0 4DB#C1F9714501A9C933
(1649771892.885376) vcan0 4C9#7D63D27529A77B1A
(1649771892.890986) vcan0 08C#F313B5437E927F4B
(1649771892.896347) vcan0 538#5501071EA951A51C
(1649771892.901746) vcan0 2E8#52B1
(1649771892.907028) vcan0 299#9D97B62E7475
(1649771892.912209) vcan0 236#A589C5
(1649771892.917632) vcan0 775#B8FEF52150146002
(1649771892.922881) vcan0 258#51BD293621AFF47D
(1649771892.928103) vcan0 665#4B567018F1F6DB3D
(1649771892.933564) vcan0 50D#6F895B0946225A53
(1649771892.939142) vcan0 278#EF73FF6F
(1649771892.944411) vcan0 7B6#C2
(1649771892.949677) vcan0 748#C34FEB6A7EE1D146
(1649771892.955212) vcan0 3F2#EEF79D6867D39810
(1649771892.960432) vcan0 0B6#B7E7F8120E23
(1649771892.965898) vcan0 71F#30D2ED0B84F54162
(1649771892.971191) vcan0 5D6#75EC1D20E362F61E
(1649771892.976420) vcan0 2B9#29855072
(1649771892.981802) vcan0 0A8#930A84155E60D159
(1649771892.987362) vcan0 65A#AD3AC751A2
(1649771892.992640) vcan0 5B4#
(1649771892.998047) vcan0 3D8#0D451D5B8E4CB91C
(1649771893.003620) vcan0 5B5#9D6FB22A
(1649771893.008943) vcan0 1CC#59F2B86FA297572C
(1649771893.014138) vcan0 248#85FA4D4B01FD815B
(1649771893.019523) vcan0 4B3#33F2D97B5C552C0A
(1649771893.024796) vcan0 0C8#BAB5FD632297
(1649771893.030229) vcan0 11B#C5D4BC63CF363C60
(1649771893.035442) vcan0 2D8#75A8C02AB1
(1649771893.040613) vcan0 2F4#3F2B
(1649771893.046046) vcan0 246#7F15DF4512EC2C2B
(1649771893.051599) vcan0 4A9#B4838457F146E56F
(1649771893.057148) vcan0 6A7#F343674B5B3BBF7E
(1649771893.062391) vcan0 5E9#B790EB08B176
(1649771893.068016) vcan0 2ED#D3
(1649771893.073463) vcan0 6D9#D84A1D5CB2B12515
(1649771893.078787) vcan0 67E#6390002C72E1540F
(1649771893.084061) vcan0 0D0#1CFA
(1649771893.089588) vcan0 67F#29E7DC2B2833C252
(1649771893.095194) vcan0 774#1A7AA7421BFEA208
(1649771893.100524) vcan0 117#7639620700E7A406
(1649771893.106102) vcan0 433#B15D04072027EF2D
(1649771893.111890) vcan0 09F#293BD02978
(1649771893.117442) vcan0 61D#2A
(1649771893.123324) vcan0 14E#0E06C8711E5A8719
(1649771893.129055) vcan0 530#3555371AAF9B7B7E
(1649771893.134860) vcan0 7C6#D7CE3D513A27550A
(1649771893.140905) vcan0 73B#55
(1649771893.146445) vcan0 6FE#53774E7632FB4377
(1649771893.151662) vcan0 0F9#5222332598
(1649771893.157020) vcan0 08A#1181C447A78E0777
(1649771893.162355) vcan0 37C#43B37A59CB5CBC61
(1649771893.168087) vcan0 3C9#E9
(1649771893.173509) vcan0 17B#A8E4F61C41C9E84B
(1649771893.179497) vcan0 07C#7BF03D56B8EF0425
(1649771893.185047) vcan0 471#0B
(1649771893.190501) vcan0 49D#A1FE511B969D382E
(1649771893.195749) vcan0 463#2FD71756
(1649771893.201228) vcan0 66F#
(1649771893.206641) vcan0 27B#B7BE354644D68678
(1649771893.211908) vcan0 029#
(1649771893.217439) vcan0 1BF#E68AC17B3B
(1649771893.223168) vcan0 765#F3
(1649771893.228747) vcan0 132#45B75548CF05C63E
(1649771893.234229) vcan0 15D#66A3FE6CC0FD83
(1649771893.239432) vcan0 6DB#AE0AD00E4A
(1649771893.244820) vcan0 2D5#36B72E
(1649771893.250333) vcan0 51B#957B257444FD0220
(1649771893.256055) vcan0 38E#E8BE
(1649771893.261627) vcan0 6B8#883756291D564E61
(1649771893.267482) vcan0 530#F30996056256D258
(1649771893.273067) vcan0 37A#325C9817D75C4A64
(1649771893.278422) vcan0 71F#985ACE63FA4DC055
(1649771893.283674) vcan0 22D#45A37509024D
(1649771893.289027) vcan0 389#52F23E24A400B47C
(1649771893.294632) vcan0 069#E8FDB61CF7BBE6
(1649771893.300063) vcan0 0BA#
(1649771893.305639) vcan0 69F#8FFDFA43CFCBCC55
(1649771893.311482) vcan0 248#3122
(1649771893.317013) vcan0 0BA#9ADA4E
(1649771893.322486) vcan0 5FB#D48D
(1649771893.327730) vcan0 278#2A451C3B01A67D70
(1649771893.333195) vcan0 395#A5A6316DFE5BF349
(1649771893.338816) vcan0 564#F517DA691EAE4B1B
(1649771893.344097) vcan0 15E#9055F87DFD67AB2E
(1649771893.349638) vcan0 205#CC3378044EF49001
(1649771893.355284) vcan0 2A1#1172952F5C230123
(1649771893.360637) vcan0 461#3663116C5C521D44
(1649771893.366151) vcan0 1DE#854A9956561CBD20
(1649771893.371386) vcan0 224#58C23A11B9AD127D
(1649771893.376764) vcan0 72C#B7090647916CD068
(1649771893.382456) vcan0 58B#AF1A1C04E96ED07E
(1649771893.388097) vcan0 2E5#
(1649771893.393687) vcan0 35F#38F9
(1649771893.399170) vcan0 0AF#5D418D7210355A5E
(1649771893.404645) vcan0 7F5#6D8777
(1649771893.410044) vcan0 59D#2956
(1649771893.415290) vcan0 1A1#7A
(1649771893.420635) vcan0 17F#5F
(1649771893.426202) vcan0 0DD#F3FDAB54C2F31443
(1649771893.431817) vcan0 04E#ADF82A35AEE3DF2E
(1649771893.437343) vcan0 78B#AF016C7E3A
(1649771893.442883) vcan0 52F#4B75817724152F31
(1649771893.448218) vcan0 79F#F74E514E3C7D1839
(1649771893.453670) vcan0 6AA#
(1649771893.458984) vcan0 5A2#1959A719213FD128
(1649771893.464265) vcan0 1AA#2BCEAC7E879ADF61
(1649771893.469722) vcan0 687#4A8EF424D5BEEA51
(1649771893.475039) vcan0 0F7#83A2CA0082809C
(1649771893.480347) vcan0 0DC#BCC0
(1649771893.485930) vcan0 73E#2FEB2E00DDCEC7
(1649771893.491772) vcan0 2BF#1A4CE0786901
(1649771893.497247) vcan0 747#B5311865E99CFB35
(1649771893.502581) vcan0 390#0ADCCC5E3A255C0E
(1649771893.507828) vcan0 147#C2BF3B70CE
(1649771893.513280) vcan0 653#A3D60B364A175306
(1649771893.518991) vcan0 503#CC97EF0FDF4D41
(1649771893.524227) vcan0 559#EB23414198043D26
(1649771893.529816) vcan0 690#75D304664FC13601
(1649771893.535313) vcan0 141#B9C27E488828A16A
(1649771893.540959) vcan0 0A7#71C59C2038BCA46B
(1649771893.546374) vcan0 73C#72E1007A83F86429
(1649771893.551606) vcan0 3B0#5110860D
(1649771893.557094) vcan0 740#4DD9081443
(1649771893.562474) vcan0 01C#2312FE60757D7530
(1649771893.568048) vcan0 1A1#0D82B2563158A423
(1649771893.573678) vcan0 528#8119DB
(1649771893.579111) vcan0 512#F1B6405EBA152349
(1649771893.584534) vcan0 0A8#F2D1
(1649771893.589954) vcan0 5DD#6848AC70
(1649771893.595109) vcan0 499#902BE068D9437218
(1649771893.600455) vcan0 7AE#1D082F07CA9F2C3C
(1649771893.606053) vcan0 5F6#
(1649771893.611755) vcan0 04E#C997311B76951B6E
(1649771893.617135) vcan0 4D0#E023BB61E369A81B
(1649771893.622850) vcan0 584#9D
(1649771893.628098) vcan0 734#11AE9E0F1175203D
(1649771893.633565) vcan0 4F3#9FDE4A188C596161
(1649771893.639066) vcan0 732#669DD379E18E4140
(1649771893.644360) vcan0 70D#AB2E6E
(1649771893.649883) vcan0 7C3#9BC4821611109C73
(1649771893.655679) vcan0 339#87A5B76109
(1649771893.661256) vcan0 5AF#EC491948349B27
(1649771893.666967) vcan0 439#60F97E676DFB4742
(1649771893.672298) vcan0 318#7E
(1649771893.677870) vcan0 5EA#987935701DEDE575
(1649771893.683151) vcan0 14D#FE7B27365A68F216
(1649771893.688464) vcan0 481#5DEDE735447C3B54
(1649771893.694084) vcan0 695#558CD747CEE10A48
(1649771893.699959) vcan0 65E#D7C17B740D1CE06F
(1649771893.705430) vcan0 344#41B7070F
(1649771893.711225) vcan0 54D#EA9A
(1649771893.716613) vcan0 013#7210C63EFEF50C65
(1649771893.722247) vcan0 286#1BE3F25AD3B3B262
(1649771893.727554) vcan0 109#2D1CA5798A5D1004
(1649771893.732990) vcan0 1C2#CFD94B585700565F
(1649771893.738667) vcan0 384#25E26027
(1649771893.743943) vcan0 001#EFE5F6694693B436
(1649771893.749443) vcan0 7C1#C3
(1649771893.754827) vcan0 5D3#7475DD71E6A5295D
(1649771893.760270) vcan0 117#E49B36429D33
(1649771893.765939) vcan0 7F1#71E78538FAB0A378
(1649771893.771237) vcan0 618#840EB47CDBE7F371
(1649771893.776597) vcan0 529#32E849
(1649771893.782186) vcan0 678#8F92C65779E6D53E
(1649771893.788031) vcan0 655#BF798A75161EF96C
(1649771893.793576) vcan0 5B0#24A3E4
(1649771893.799466) vcan0 231#69096B0748538C02
(1649771893.804931) vcan0 67F#E5865F5870AE0431
(1649771893.810609) vcan0 44D#6A5FA8296602
(1649771893.815936) vcan0 1F5#41EA02071E7FC824
(1649771893.821481) vcan0 642#CC4778
(1649771893.827273) vcan0 4CB#348B552F200B7F65
(1649771893.832611) vcan0 2DA#362978
(1649771893.838011) vcan0 176#0DCCF900A72B1D38
(1649771893.843475) vcan0 4F4#EF7EA93A738384
(1649771893.848869) vcan0 2C5#E431892412
(1649771893.854323) vcan0 42B#78A1E04D20E6FE66
(1649771893.859536) vcan0 73D#3F65C70B8055EA6F
(1649771893.864976) vcan0 62D#3AFA6960F8FA277E
(1649771893.870607) vcan0 766#1906A76341DA7A04
(1649771893.876019) vcan0 262#CB42335BD83B2F76
(1649771893.881486) vcan0 3AA#80674C2E9EE09A59
(1649771893.887208) vcan0 450#12641F4D155F9836
(1649771893.892609) vcan0 444#27FE696F7060
(1649771893.898179) vcan0 744#
(1649771893.903552) vcan0 359#027C522486895E3F
(1649771893.908714) vcan0 0DA#7F84863D41E07109
(1649771893.913884) vcan0 3AB#82BAEC0D0D861B49
(1649771893.919286) vcan0 1E7#E5C14A3F92B5C80E
(1649771893.924570) vcan0 426#3096636876
(1649771893.930197) vcan0 7D5#8B4F
(1649771893.935685) vcan0 038#895C79
(1649771893.941165) vcan0 553#FFDD6D1BAC185A1F
(1649771893.946582) vcan0 6E9#33
(1649771893.951822) vcan0 03D#0588
(1649771893.957219) vcan0 14A#F5511422316BB9
(1649771893.962806) vcan0 7D4#C3208223FB4BD872
(1649771893.968093) vcan0 540#713CB71C
(1649771893.973585) vcan0 136#2F490F786F419468
(1649771893.979463) vcan0 1B0#ECF8994F03C73B5A
(1649771893.985037) vcan0 0D2#AFDF9579BC970770
(1649771893.990448) vcan0 0EC#803F
(1649771893.995715) vcan0 094#12CD3D48DE
(1649771894.001092) vcan0 20C#10C5B346E04989
(1649771894.006419) vcan0 2E2#DB9561
(1649771894.011722) vcan0 4C7#38BD2A40FE4D8437
(1649771894.017277) vcan0 64A#6D8F1820FA3757
(1649771894.022931) vcan0 420#FDFE9279F2F4B006
(1649771894.028353) vcan0 744#AE8CB87630908205
(1649771894.033760) vcan0 08F#5991C77423090540
(1649771894.039103) vcan0 3B3#0263FF71BF9D5D7F
(1649771894.044447) vcan0 573#A0E7
(1649771894.050082) vcan0 5E5#7820B00DADAA0419
(1649771894.055774) vcan0 7C8#AB
(1649771894.061321) vcan0 418#0CE6FF433890D728
(1649771894.067049) vcan0 071#2B85882FB56F0E3B
(1649771894.072546) vcan0 3B6#E5FF90404524337C
(1649771894.077838) vcan0 608#682D383CBB716D21
(1649771894.083103) vcan0 7AA#7B0FCB201D6DB519
(1649771894.088433) vcan0 07C#721DBE0C62C6D309
(1649771894.093967) vcan0 496#0F71D8225FC45B35
(1649771894.099826) vcan0 39C#7172045AB4FF5D6E
(1649771894.105362) vcan0 1D2#ED8F351743025744
(1649771894.111117) vcan0 587#F871657F3D01530C
(1649771894.116484) vcan0 6F1#82258608F9040D27
(1649771894.121930) vcan0 31B#B5767A48C5F2AC67
(1649771894.127368) vcan0 355#
(1649771894.132759) vcan0 54B#3462B463E1
(1649771894.138368) vcan0 340#40B64D
(1649771894.143738) vcan0 4FD#90D6
(1649771894.149253) vcan0 130#12314822B7BEED3A
(1649771894.154803) vcan0 395#F5BF404787A2284A
(1649771894.160175) vcan0 4E7#80A735710218F3
(1649771894.165618) vcan0 062#C80AA03EB8
(1649771894.170970) vcan0 465#8AB75B61B021ED71
(1649771894.176278) vcan0 7FF#9213DF233FA3B176
(1649771894.181898) vcan0 501#1B7A
(1649771894.187743) vcan0 284#CD587C23B473D52B
(1649771894.193368) vcan0 729#6C32C366BF32547A
(1649771894.199200) vcan0 4E9#46
(1649771894.204663) vcan0 7D8#D25909203B10
(1649771894.210017) vcan0 2FC#F32BCB19613F5812
(1649771894.215227) vcan0 745#1261450444B7CE6C
(1649771894.220509) vcan0 53B#845A8063
(1649771894.226064) vcan0 676#3A145F51FB30D07F
(1649771894.231917) vcan0 54B#AFA4A52B75DCF3
(1649771894.237505) vcan0 6E6#340F4809CF231222
(1649771894.243192) vcan0 17C#9F65286B55A1373E
(1649771894.248758) vcan0 140#90
(1649771894.254192) vcan0 40C#9E3B32
(1649771894.259515) vcan0 100#
(1649771894.264966) vcan0 154#77A88431CA4FED64
(1649771894.270590) vcan0 1B9#C5
(1649771894.275887) vcan0 1B8#79DB9C449E
(1649771894.281229) vcan0 490#6D4471540DC63863
(1649771894.286990) vcan0 727#626770216830211F
(1649771894.292367) vcan0 17D#A42C
(1649771894.297772) vcan0 675#DA80
(1649771894.303023) vcan0 4F2#
(1649771894.308348) vcan0 089#11662E37420A39
(1649771894.313893) vcan0 2D8#4709E2049004
(1649771894.319731) vcan0 44B#
(1649771894.325257) vcan0 76E#E9CE5332959E0D33
(1649771894.330750) vcan0 3A7#FDCE2E52247DD224
(1649771894.336048) vcan0 73D#AE0A
(1649771894.341548) vcan0 3E4#27FDCB63D768FC1B
(1649771894.346837) vcan0 6F8#1D7F3D6E82E782
(1649771894.352148) vcan0 0FE#C4F1BB23D66B1900
(1649771894.357541) vcan0 405#6670B61350D8A66D
(1649771894.363151) vcan0 7CC#2CE1C13C
(1649771894.368586) vcan0 72F#CF4D8E3CD6
(1649771894.374079) vcan0 660#FA8FF9729D359608
(1649771894.379934) vcan0 06F#4F7B9D2A537C3E6E
(1649771894.385463) vcan0 631#2AE53A0A29DD
(1649771894.390735) vcan0 34D#ABC4C5004B7CE63D
(1649771894.396088) vcan0 176#
(1649771894.401613) vcan0 17B#CCEDE24C47913C
(1649771894.407542) vcan0 61B#8140BD484AED881F
(1649771894.413012) vcan0 70E#20
(1649771894.418688) vcan0 31E#0C9B2A448DC3EF06
(1649771894.423937) vcan0 2C3#E03F2E75F4503510
(1649771894.429437) vcan0 6D2#1E2E783C1F7ADC56
(1649771894.434852) vcan0 153#6BF6C214C9D2C515
(1649771894.440081) vcan0 139#45E80175B55ADF2E
(1649771894.445663) vcan0 714#FC
(1649771894.451039) vcan0 509#7A126B6F17244444
(1649771894.456431) vcan0 2CF#8689D87FED652D50
(1649771894.462043) vcan0 2B5#7A29
(1649771894.467879) vcan0 2ED#6D1E167BBFC9FC2F
(1649771894.473504) vcan0 665#DF43D906B8179643
(1649771894.478897) vcan0 755#82EA5B598EE88B56
(1649771894.484154) vcan0 0D6#43436B05EA4FD8
(1649771894.489751) vcan0 0D8#
(1649771894.495519) vcan0 3BE#F9711020
(1649771894.500958) vcan0 22E#7A7CB236E43C056D
(1649771894.506700) vcan0 011#5D0AE657
(1649771894.512000) vcan0 74E#BE24B446B49DCF25
(1649771894.517535) vcan0 556#6CB56569ABB4567F
(1649771894.522796) vcan0 2E7#399DE255BDBB8857
(1649771894.528050) vcan0 2B5#A80B616A8D1B6221
(1649771894.533561) vcan0 7BD#6F69
(1649771894.539299) vcan0 056#0882BA5F84A2814E
(1649771894.544741) vcan0 6E7#68DF
(1649771894.550336) vcan0 476#F651CB37C4
(1649771894.556077) vcan0 290#78512724
(1649771894.561682) vcan0 751#913C4A7038
(1649771894.567044) vcan0 6D3#F63DBF0C89196E61
(1649771894.572267) vcan0 247#1635D00204CA4F70
(1649771894.577712) vcan0 260#7F358569B6
(1649771894.583091) vcan0 1ED#3A75FE31D45065
(1649771894.588311) vcan0 609#CC4779
(1649771894.593579) vcan0 668#440E41
(1649771894.599418) vcan0 077#DED84E58C9EFD07D
(1649771894.604777) vcan0 6A1#01720733750D4404
(1649771894.610189) vcan0 73A#FE26B26581A940
(1649771894.616006) vcan0 195#86739020
(1649771894.621552) vcan0 29A#AB969F5E87
(1649771894.627203) vcan0 08D#5CC523609616
(1649771894.632589) vcan0 089#1671EB36F19E157F
(1649771894.638003) vcan0 6EB#EAEF706663B7A540
(1649771894.643722) vcan0 716#2CA7763EB8458A13
(1649771894.649326) vcan0 638#2D53CE1772CD1E16
(1649771894.654597) vcan0 125#F3765F46BAC22B68
(1649771894.659981) vcan0 63F#B0864E63D9D0834E
(1649771894.665480) vcan0 37F#614542540CF45A44
(1649771894.671165) vcan0 141#A20A5D77CA89AF50
(1649771894.676623) vcan0 7E5#BC28C54FD1BEE41E
(1649771894.682231) vcan0 312#34768A5F29DA
(1649771894.688044) vcan0 16E#
(1649771894.693544) vcan0 68D#188D6D12B2FFC340
(1649771894.699029) vcan0 539#6DC2EF2878C3E555
(1649771894.704303) vcan0 685#529469240482C230
(1649771894.709790) vcan0 678#10761D
(1649771894.715548) vcan0 470#841968
(1649771894.720985) vcan0 46B#
(1649771894.726562) vcan0 2E6#A7D14149553C596C
(1649771894.732053) vcan0 6BA#FBFBA76848850469
(1649771894.737699) vcan0 496#FA84C829
(1649771894.742965) vcan0 520#4715015CA57B9F
(1649771894.748261) vcan0 084#AAFD6144FDF6222D
(1649771894.753650) vcan0 34C#B786DB4DBC672826
(1649771894.759031) vcan0 46D#12643D63D9F0BC40
(1649771894.764368) vcan0 27C#57E8F442623DD477
(1649771894.770049) vcan0 093#B7792D644D9F4054
(1649771894.776012) vcan0 386#952445
(1649771894.781667) vcan0 6C7#
(1649771894.787064) vcan0 0F7#8C07
(1649771894.792346) vcan0 0CC#7978DF4518A4
(1649771894.797824) vcan0 0F1#
(1649771894.803614) vcan0 76B#375E0514E7816F
(1649771894.808863) vcan0 71F#4ABF434BB2DF3A65
(1649771894.814596) vcan0 08C#00
(1649771894.820568) vcan0 6B4#2EBC82597B
(1649771894.826258) vcan0 525#6239FF5F1D3E9417
(1649771894.831602) vcan0 54C#99BF503018B61077
(1649771894.836896) vcan0 625#305A
(1649771894.842542) vcan0 742#752CD203AD
(1649771894.847973) vcan0 5EC#955859300C65C676
(1649771894.853486) vcan0 13B#BE44015CC7D10252
(1649771894.858982) vcan0 0E0#DA7D406595FF5427
(1649771894.864490) vcan0 754#10AD866B79B40B6A
(1649771894.870022) vcan0 022#96F29F
(1649771894.875417) vcan0 762#86A3FB29876D2D5E
(1649771894.880694) vcan0 241#9E2CB70E8321
(1649771894.886163) vcan0 3BC#31F8F5
(1649771894.891499) vcan0 3BF#B49EFA26FAB4
(1649771894.897194) vcan0 0A5#C28635
(1649771894.902905) vcan0 731#1AB94F0D850EB624
(1649771894.908239) vcan0 6A4#FFC2C10EC696DF73
(1649771894.914071) vcan0 49E#3484CA2600
(1649771894.919379) vcan0 7C5#87E17B7D0652736A
(1649771894.924827) vcan0 571#8A737F1C2D
(1649771894.930312) vcan0 738#D5C2D667F84A1D49
(1649771894.935555) vcan0 481#F2FF4F622625B125
(1649771894.940835) vcan0 4FD#ABDEAB0B
(1649771894.946511) vcan0 350#B4FAFB4EF5C9
(1649771894.952085) vcan0 5F1#BB6014
(1649771894.957597) vcan0 348#
(1649771894.963434) vcan0 4AA#142DE51A1B32
(1649771894.968687) vcan0 63C#48BBFC637415E81D
(1649771894.974246) vcan0 459#6C600567DAC89E4D
(1649771894.979954) vcan0 7A8#00EE4F73A524726C
(1649771894.985498) vcan0 713#D310B8166472D634
(1649771894.990954) vcan0 471#593C0B626262C9
(1649771894.996276) vcan0 13A#F1ACF77F
(1649771895.001880) vcan0 204#
(1649771895.007106) vcan0 397#CAC0FD0F
(1649771895.012431) vcan0 542#47CF80
(1649771895.018064) vcan0 231#75BAC564
(1649771895.024091) vcan0 013#7EFEE40626
(1649771895.029596) vcan0 521#8A
(1649771895.035454) vcan0 2D9#F53BD2
(1649771895.040999) vcan0 2F8#96205478FC44
(1649771895.046781) vcan0 467#ABD35915FE5FAB
(1649771895.052088) vcan0 4CB#D119445E0E62
(1649771895.057553) vcan0 089#A953B322BA0A2059
(1649771895.063324) vcan0 0CC#93E49273DFA82606
(1649771895.069038) vcan0 694#06
(1649771895.074787) vcan0 262#
(1649771895.080019) vcan0 774#4FF128626CF2B91E
(1649771895.085434) vcan0 223#683770508A
(1649771895.091268) vcan0 20C#88DE2E5C
(1649771895.096525) vcan0 78A#E628A01713B07324
(1649771895.101771) vcan0 172#CDBA937D3EFA826E
(1649771895.107085) vcan0 2AE#
(1649771895.112384) vcan0 271#F86CFB57
(1649771895.117866) vcan0 4B4#
(1649771895.123795) vcan0 37D#94EEAC72A1DD6413
(1649771895.129107) vcan0 543#2B5CE87850CF9310
(1649771895.134885) vcan0 111#2896A71C
(1649771895.140169) vcan0 30D#AE807C587F14C22D
(1649771895.145653) vcan0 39D#BE0E451C4CC66730
(1649771895.151507) vcan0 2DB#8F07C3514C5DD532
(1649771895.156944) vcan0 500#1FD28836B44166
(1649771895.162696) vcan0 6C8#DD3D5948459A8263
(1649771895.168099) vcan0 78C#E6
(1649771895.173718) vcan0 26E#201C
(1649771895.179284) vcan0 6C6#1A54135BD3417154
(1649771895.184924) vcan0 156#53563302F3ACC202
(1649771895.190554) vcan0 043#3F
(1649771895.195974) vcan0 6ED#6A48AC03ED8BDC07
(1649771895.201616) vcan0 756#A1CD427C1ED60E56
(1649771895.207321) vcan0 6B8#637091394536BC66
(1649771895.212971) vcan0 7F0#158360195E8AC57D
(1649771895.218650) vcan0 45C#DE0DD02422
(1649771895.224203) vcan0 17D#F50CA139D3C29F50
(1649771895.229538) vcan0 6C1#C66F62530447133D
(1649771895.235276) vcan0 059#2332EA0D46DF
(1649771895.240558) vcan0 5D4#336B90112A4D263A
(1649771895.246117) vcan0 517#48233510D0
(1649771895.251948) vcan0 453#153A5F42437C1152
(1649771895.257537) vcan0 3F6#A206D74F5238881A
(1649771895.263470) vcan0 45F#
(1649771895.268781) vcan0 678#AF70704539ADFD27
(1649771895.274050) vcan0 3B2#3EF410650B
(1649771895.279934) vcan0 37B#52
(1649771895.285476) vcan0 0EE#7A6E006506
(1649771895.291071) vcan0 75A#D63900
(1649771895.296475) vcan0 56F#F17F121D65A13B39
(1649771895.302102) vcan0 115#B7D9C3
(1649771895.307727) vcan0 313#503B48778C111B56
(1649771895.313187) vcan0 594#C5BE187E46610202
(1649771895.318476) vcan0 474#529D7C
(1649771895.324016) vcan0 164#4071C51F
(1649771895.329511) vcan0 729#59B0132B84FEFA0D
(1649771895.335004) vcan0 17D#3202FC58EC96F738
(1649771895.340386) vcan0 61A#513833
(1649771895.345940) vcan0 0B7#A31C0A12CAA38844
(1649771895.351825) vcan0 733#56B5A3
(1649771895.357414) vcan0 3F2#0E3E4A286690961B
(1649771895.362692) vcan0 71F#
(1649771895.367866) vcan0 404#D77AC12C2ED3
(1649771895.373278) vcan0 151#
(1649771895.378857) vcan0 55F#BB390068
(1649771895.384225) vcan0 607#A802EF03BE5ED879
(1649771895.389681) vcan0 415#8902613E48739D39
(1649771895.395496) vcan0 73E#1050E55F307B5665
(1649771895.401069) vcan0 3FB#960BED001B53A76D
(1649771895.406405) vcan0 17F#9F53B23F84FD6726
(1649771895.411578) vcan0 583#B2D04260D46E
(1649771895.417087) vcan0 1A6#A311CC25
(1649771895.422845) vcan0 648#7E828E674FCCCA5F
(1649771895.428261) vcan0 56A#0E2BA3597F41
(1649771895.433883) vcan0 471#C8B4C741AF1BC2
(1649771895.439471) vcan0 576#DF9618067211CA62
(1649771895.444962) vcan0 2F7#8D64715077
(1649771895.450337) vcan0 662#FBF93A52E6CB2A5A
(1649771895.455454) vcan0 6A2#BA3AEE504880E040
(1649771895.460822) vcan0 511#4D8F123459E38023
(1649771895.466554) vcan0 7BB#A8AF4B032655866C
(1649771895.472030) vcan0 6F1#A596B074623B
(1649771895.477633) vcan0 04D#11575729C4EDFB65
(1649771895.483141) vcan0 046#
(1649771895.488651) vcan0 065#B4DFD4
(1649771895.494086) vcan0 3EF#AEEA142991A2F225
(1649771895.499629) vcan0 45C#D922D3666D11240D
(1649771895.504958) vcan0 1C6#C6F4A4308109
(1649771895.510602) vcan0 3F1#A75ECA61E25AA53D
(1649771895.516107) vcan0 725#44963A467387D205
(1649771895.521764) vcan0 0BA#3775CE6B00
(1649771895.527249) vcan0 345#3E741A67AA6B7755
(1649771895.532753) vcan0 030#728A
(1649771895.538193) vcan0 5A2#
(1649771895.543511) vcan0 289#6CE3B0544F0C3738
(1649771895.548850) vcan0 3AF#D015
(1649771895.554497) vcan0 4A1#828AFE12C7FB254A
(1649771895.559736) vcan0 1C5#3A83F84F7FAA
(1649771895.565194) vcan0 61B#80
(1649771895.570973) vcan0 4DE#0A55443D0E45273E
(1649771895.576490) vcan0 3B0#2D394E355231D568
(1649771895.582022) vcan0 49D#5103623026EF9576
(1649771895.587302) vcan0 166#75FBCC2E15F52675
(1649771895.592576) vcan0 6EF#B524804A913B
(1649771895.597931) vcan0 5BE#5837D50D83EF4D
(1649771895.603390) vcan0 7FD#029A
(1649771895.608659) vcan0 303#78C7
(1649771895.614341) vcan0 540#EF64
(1649771895.620110) vcan0 3FF#43BA5F179D505635
(1649771895.625569) vcan0 5F9#C33FEC2B
(1649771895.630860) vcan0 451#74EC481B41633D57
(1649771895.636154) vcan0 47F#D29EEC1A3DD28E22
(1649771895.641725) vcan0 060#C0C1DC735D90FF79
(1649771895.647583) vcan0 0BC#756E
(1649771895.653120) vcan0 145#A063142A85B6602E
(1649771895.658748) vcan0 26F#763FEB5C6F4EA00B
(1649771895.664304) vcan0 6AB#0C9FF640A4D45E3F
(1649771895.670038) vcan0 74E#03CC8065A05BE108
(1649771895.675388) vcan0 208#E1BE1E6087669D
(1649771895.680925) vcan0 1A0#C4382C
(1649771895.686739) vcan0 3DD#5D1ADA23
(1649771895.692223) vcan0 647#5808
(1649771895.697924) vcan0 6BF#113EF44E2E119503
(1649771895.703860) vcan0 487#9D5F350F329B5256
(1649771895.709569) vcan0 742#D66FB115902E375C
(1649771895.715554) vcan0 579#308A186581F7AA04
(1649771895.720992) vcan0 450#09
(1649771895.726333) vcan0 6C4#F047690CA1DA0F64
(1649771895.732021) vcan0 152#3A9F6C0E99E76406
(1649771895.737653) vcan0 31F#256F
(1649771895.743096) vcan0 38A#0CBB634F1148
(1649771895.748481) vcan0 2BE#43E3960A00A2F641
(1649771895.754039) vcan0 153#91D02D1ECCF6D36B
(1649771895.759266) vcan0 6F2#4E
(1649771895.764580) vcan0 3D3#3241057A974AC0
(1649771895.769990) vcan0 324#3925
(1649771895.775385) vcan0 36F#0F5C1E
(1649771895.780648) vcan0 406#6C802050
(1649771895.786029) vcan0 06B#A2C7F15529A3CF16
(1649771895.791243) vcan0 623#2A45C65876
(1649771895.796493) vcan0 5FF#4366B618F18C4B1C
(1649771895.801958) vcan0 07C#34
(1649771895.807222) vcan0 0E8#E75E784B0C84
(1649771895.812504) vcan0 289#
(1649771895.817770) vcan0 093#879C
(1649771895.823260) vcan0 7C7#2A345D
(1649771895.828588) vcan0 06C#5B3BFA498FAEFB5C
(1649771895.834439) vcan0 6B1#061EDE09B0
(1649771895.839757) vcan0 640#A231F47CBD06EF13
(1649771895.845203) vcan0 0DA#0C1BA756C279
(1649771895.850613) vcan0 33C#CEFDFE
(1649771895.855888) vcan0 613#BE
(1649771895.861349) vcan0 2E4#40FB9C15AB
(1649771895.866682) vcan0 538#DD025355A5450D0B
(1649771895.872062) vcan0 336#34F40868E8D1201E
(1649771895.877614) vcan0 6BE#9876C97EFE54C25B
(1649771895.883463) vcan0 683#BB5BB16F5D6F4540
(1649771895.889024) vcan0 210#1FE90B694D7DF10A
(1649771895.894520) vcan0 0BB#12EBA41DCFEEDF42
(1649771895.899808) vcan0 53F#
(1649771895.905277) vcan0 715#CE9225524EDC
(1649771895.911003) vcan0 021#F321513F578BAD63
(1649771895.916217) vcan0 3E4#3F5DCE01A292D3
(1649771895.921460) vcan0 062#A0E79564E5BEBC2D
(1649771895.926653) vcan0 412#432E026E2366C928
(1649771895.931945) vcan0 224#70E3
(1649771895.937468) vcan0 650#AE99
(1649771895.942755) vcan0 553#B303127A
(1649771895.948119) vcan0 7DB#B6B8
(1649771895.953525) vcan0 42D#53EB40061100763A
(1649771895.958987) vcan0 0D1#B39249
(1649771895.964315) vcan0 46B#18D8A156
(1649771895.969779) vcan0 5B0#A0FEC52DD477C616
(1649771895.975591) vcan0 5BE#
(1649771895.981054) vcan0 093#9EF7
(1649771895.986244) vcan0 386#4E7A
(1649771895.991797) vcan0 1D4#5DEB5C1601
(1649771895.997367) vcan0 5AE#13
(1649771896.003087) vcan0 744#B217015EAF3B
(1649771896.008519) vcan0 31A#2CD45032CA889F3F
(1649771896.014196) vcan0 626#9E006656E413F914
(1649771896.019552) vcan0 4DD#F32F
(1649771896.025004) vcan0 7B4#56
(1649771896.030253) vcan0 2E3#9CF67D3AB7
(1649771896.035709) vcan0 0AA#B972993858BED40A
(1649771896.041112) vcan0 0AA#D8BCF03FEED72512
(1649771896.046760) vcan0 192#9D137A3FAD4CFB6F
(1649771896.052616) vcan0 455#77D59A2F7CBADB4B
(1649771896.058070) vcan0 297#60CED460746F
(1649771896.063529) vcan0 168#E5D4F1
(1649771896.068865) vcan0 5E5#5644130DC848D312
(1649771896.074133) vcan0 5E0#80FD
(1649771896.079862) vcan0 4EC#E3C44A3496D5E405
(1649771896.085334) vcan0 105#85AD0A1897229823
(1649771896.090628) vcan0 645#446F
(1649771896.095852) vcan0 0EC#17D59D308363311B
(1649771896.101281) vcan0 2D2#F8D2AA2E3A1474
(1649771896.106920) vcan0 1CB#56EDD205B0C74843
(1649771896.112230) vcan0 018#78101C56F9D5A016
(1649771896.117588) vcan0 49F#83DC16408B89E372
(1649771896.122849) vcan0 631#215FC878361F
(1649771896.128059) vcan0 321#CE4189046779
(1649771896.133618) vcan0 5C9#0294
(1649771896.139473) vcan0 5CE#39DAD84CA0107A24
(1649771896.144914) vcan0 490#DA
(1649771896.150325) vcan0 50E#
(1649771896.155488) vcan0 3DD#1FAB481B
(1649771896.160759) vcan0 47C#073A02
(1649771896.166188) vcan0 109#E431892A2B4C5E38
(1649771896.171941) vcan0 5CF#92C5
(1649771896.177496) vcan0 4C5#4DEA9C6D
(1649771896.182972) vcan0 2AD#342BF4463DCF
(1649771896.188299) vcan0 1B7#997D2507C5C61968
(1649771896.193961) vcan0 23F#EC9BC16C
(1649771896.199770) vcan0 228#98566968A50EE148
(1649771896.205080) vcan0 6AE#53217912B8F72A33
(1649771896.210720) vcan0 1C7#E343896B96CFD3
(1649771896.216001) vcan0 6EA#2E43C904AF
(1649771896.221532) vcan0 309#4206BE55B6254754
(1649771896.227087) vcan0 202#F3F4C318BA63
(1649771896.232585) vcan0 185#7F2AEF4AC4E3375C
(1649771896.238333) vcan0 631#E089826D59E02416
(1649771896.244110) vcan0 577#FEEE055F25DC2423
(1649771896.249406) vcan0 117#DD
(1649771896.255102) vcan0 389#
(1649771896.260396) vcan0 135#2216DA
(1649771896.266012) vcan0 31F#F4A93966
(1649771896.271763) vcan0 5DB#DC30424D60CFDE07
(1649771896.277241) vcan0 174#24B31664A577E74B
(1649771896.282551) vcan0 1C7#FF570C62
(1649771896.288034) vcan0 57C#630BC232938EDC2F
(1649771896.293259) vcan0 74F#71
(1649771896.298907) vcan0 701#4BE5A87B3718
(1649771896.304157) vcan0 18A#759C683DA91C877C
(1649771896.309552) vcan0 7D1#CBE9F366AC65652D
(1649771896.315299) vcan0 552#0C354435C6F686
(1649771896.320715) vcan0 603#
(1649771896.326089) vcan0 534#08C7E62BB0427912
(1649771896.331598) vcan0 568#43D15542B7641E63
(1649771896.336921) vcan0 1AC#8F1F3144AE
(1649771896.342204) vcan0 69B#E5C01B5E25D08122
(1649771896.347430) vcan0 047#CFEC081F19187876
(1649771896.352606) vcan0 3C4#C57DDD231689C661
(1649771896.357774) vcan0 142#DD7F
(1649771896.362966) vcan0 302#0FFFE32237C0705D
(1649771896.368141) vcan0 4B4#E702EA6F1CC2C3
(1649771896.373534) vcan0 082#D426E2332F4A2E15
(1649771896.378671) vcan0 6E0#DDF2D3
(1649771896.383846) vcan0 33E#A12D
(1649771896.389062) vcan0 11C#
(1649771896.394352) vcan0 10A#F73D6162
(1649771896.399970) vcan0 436#9149E00D
(1649771896.405422) vcan0 41D#
(1649771896.411037) vcan0 6B7#EE2265273AA702
(1649771896.416560) vcan0 682#69F1
(1649771896.421950) vcan0 025#DDF2634E63DB
(1649771896.427123) vcan0 008#E926924C24A96871
(1649771896.432305) vcan0 2EE#055E0372F92B9A
(1649771896.437499) vcan0 3EB#450EE0112100B614
(1649771896.442731) vcan0 1D1#5A2FF43BEF057E
(1649771896.448431) vcan0 077#C0661F672FAF1350
(1649771896.454176) vcan0 120#6956167DA2D7145C
(1649771896.459875) vcan0 370#046D
(1649771896.465124) vcan0 418#F93E
(1649771896.470420) vcan0 060#446D
(1649771896.475986) vcan0 06A#48E7E331555C4979
(1649771896.481488) vcan0 747#775CFF0D18C1240B
(1649771896.487101) vcan0 564#07
(1649771896.492487) vcan0 29A#0B9D1C04BBBBD23F
(1649771896.498155) vcan0 776#5D93E71B
(1649771896.504111) vcan0 346#7DEE
(1649771896.509731) vcan0 044#7E2B0703A4E0
(1649771896.515119) vcan0 359#F39B
(1649771896.520523) vcan0 40C#18E0452853CB6E7B
(1649771896.526121) vcan0 0C9#6C8C93062DC65E1E
(1649771896.531945) vcan0 060#09B467
(1649771896.537503) vcan0 13B#B62EA24A
(1649771896.543080) vcan0 488#99C351
(1649771896.548576) vcan0 275#2CE7F721B922
(1649771896.554274) vcan0 78C#5E036E79E572D97F
(1649771896.559584) vcan0 36D#A8
(1649771896.564920) vcan0 28D#CD
(1649771896.570553) vcan0 350#8361F00EB1DB990D
(1649771896.575840) vcan0 2AC#AC4E6918E83B3E26
(1649771896.581362) vcan0 6A1#9A74
(1649771896.587076) vcan0 775#F82AC5
(1649771896.592470) vcan0 249#A424794CD5
(1649771896.597981) vcan0 4CF#BB3C
(1649771896.603292) vcan0 754#B6DF78
(1649771896.608487) vcan0 224#3785D0
(1649771896.614087) vcan0 1BC#26F9510268DC4917
(1649771896.619908) vcan0 447#5018
(1649771896.625272) vcan0 534#130E8962A9045C47
(1649771896.630961) vcan0 51D#9406503866AF2E1F
(1649771896.636268) vcan0 330#3C79BA000070C742
(1649771896.641812) vcan0 33B#3C4033448F1A38
(1649771896.647058) vcan0 15A#7004
(1649771896.652331) vcan0 275#F4106A4E31FCA4
(1649771896.657933) vcan0 062#9AD8EE06A96C2109
(1649771896.663319) vcan0 1EC#92CF165C20173E69
(1649771896.668760) vcan0 5D5#C91B9A30F2
(1649771896.674059) vcan0 6B1#59F27F25E161F91C
(1649771896.679603) vcan0 597#E1D1C05FD2
(1649771896.685099) vcan0 18C#62BB9B07E60AB57A
(1649771896.690444) vcan0 210#65FE
(1649771896.695719) vcan0 17A#B708E60FDCB96233
(1649771896.701190) vcan0 173#85
(1649771896.706552) vcan0 23C#7F8242481150C839
(1649771896.711779) vcan0 3BD#039319406EEA2820
(1649771896.717223) vcan0 0A7#504C223D3E0E7A4F
(1649771896.722928) vcan0 0F1#10
(1649771896.728353) vcan0 04F#641D
(1649771896.733812) vcan0 245#E66EB827BF73E665
(1649771896.739034) vcan0 323#9B2D49199644A879
(1649771896.744302) vcan0 0EF#
(1649771896.749883) vcan0 238#3C7B8763F6
(1649771896.755669) vcan0 0BE#6408CC656591927B
(1649771896.761102) vcan0 39C#A39F0C4B
(1649771896.766665) vcan0 2E6#0B973C29
(1649771896.772683) vcan0 126#950520086BE3EF02
(1649771896.778101) vcan0 038#2A57D6685BFB8421
(1649771896.783318) vcan0 419#F23F2D1B08
(1649771896.788829) vcan0 0E6#3370A95F1E235546
(1649771896.794500) vcan0 25D#1441F80B1CF3942E
(1649771896.799784) vcan0 1AE#8184272A4A8D0C70
(1649771896.805302) vcan0 62D#D8111B0513
(1649771896.810791) vcan0 2D9#49B42C
(1649771896.816086) vcan0 552#6B0F722D8A2DE101
(1649771896.821716) vcan0 65A#E628662373
(1649771896.827076) vcan0 35B#7B5F862A41C45470
(1649771896.832384) vcan0 0C0#5FE7A9361D7B3647
(1649771896.837859) vcan0 31D#396ECB75
(1649771896.843255) vcan0 1ED#16423F241A101949
(1649771896.848722) vcan0 6E0#2E219D1DB989455D
(1649771896.854328) vcan0 4D1#B8B5C707235A29
(1649771896.859709) vcan0 755#AD870A
(1649771896.865178) vcan0 3B9#22D8D7
(1649771896.870450) vcan0 16B#55DB3E542B727154
(1649771896.875882) vcan0 74B#49EDA71B
(1649771896.881308) vcan0 328#3477
(1649771896.887017) vcan0 63D#306D0A4B1D658D46
(1649771896.892470) vcan0 538#D6EED223090A6D2D
(1649771896.898092) vcan0 3D5#2C64966B2AF3872B
(1649771896.903482) vcan0 1B2#DAB0C3086B95562C
(1649771896.908987) vcan0 46D#7FAC4010D8B51531
(1649771896.914173) vcan0 09A#04288705
(1649771896.919303) vcan0 289#4E8A7631B135F33C
(1649771896.924459) vcan0 0CF#C792
(1649771896.929702) vcan0 2CC#2A24962A04C8B3
(1649771896.935107) vcan0 655#0D
(1649771896.940375) vcan0 790#54E58F794221D85A
(1649771896.945965) vcan0 212#AEB62E077FBE690F
(1649771896.951862) vcan0 72B#58747F40C5DFE833
(1649771896.957383) vcan0 302#AAA770118B35576B
(1649771896.962851) vcan0 1A9#3C6B4A287822D819
(1649771896.968173) vcan0 37A#85E1E0
(1649771896.973717) vcan0 5FA#
(1649771896.979565) vcan0 0B1#797EBC3141D0E3
(1649771896.985141) vcan0 690#83F1BB4BA3E05B5C
(1649771896.990944) vcan0 1FC#22
(1649771896.996261) vcan0 35F#ECF8773E61F64866
(1649771897.001870) vcan0 7D6#EC2BA0517F6181
(1649771897.007101) vcan0 28F#F88359730A064F0F
(1649771897.012435) vcan0 52C#50F4C67126933752
(1649771897.018013) vcan0 32D#761FEC35DE839110
(1649771897.023530) vcan0 2F2#1F54750183F14273
(1649771897.029115) vcan0 1BD#26D29E
(1649771897.034959) vcan0 5D4#E114244B33F9750A
(1649771897.040501) vcan0 4C3#94EFBE709934F559
(1649771897.046180) vcan0 665#
(1649771897.051618) vcan0 2A9#FE
(1649771897.057069) vcan0 78E#FBDA9A6FBCEABB31
(1649771897.062731) vcan0 5EA#9A
(1649771897.068171) vcan0 061#5F4ADF071E9A2420
(1649771897.073711) vcan0 05D#D895B96031
(1649771897.079669) vcan0 5CE#65EF853B91128C7A
(1649771897.085231) vcan0 088#2A478154ED66FE0E
(1649771897.091014) vcan0 27A#E1E752
(1649771897.096286) vcan0 754#
(1649771897.101578) vcan0 22F#9F618E
(1649771897.106796) vcan0 265#F5685A76C662A26A
(1649771897.112102) vcan0 2F3#E4FCC60A50
(1649771897.117638) vcan0 7DA#8291A240A85D9A68
(1649771897.123289) vcan0 577#39702663FFF5D7
(1649771897.128677) vcan0 7E0#EC5CD65B
(1649771897.134356) vcan0 4A7#7D07FF41FC8B676E
(1649771897.139583) vcan0 3AD#DF023A35DC
(1649771897.145031) vcan0 469#F5AD3E14CE96AE1F
(1649771897.150655) vcan0 4B7#94F9500AABC74267
(1649771897.156112) vcan0 240#FB62D5761A9A8A5E
(1649771897.161663) vcan0 135#C3F72447ACC6F617
(1649771897.167596) vcan0 564#ABBCCE6445D50D5C
(1649771897.173130) vcan0 760#9F2F1F7308B492
(1649771897.178882) vcan0 665#0440FA0F1212EE65
(1649771897.184176) vcan0 392#EFAF6E
(1649771897.189723) vcan0 761#C9965821
(1649771897.195131) vcan0 4CF#C3A3E3420F3F1940
(1649771897.200529) vcan0 6D6#2AD9A31E0B105A41
(1649771897.206215) vcan0 33C#B8D65059A170D124
(1649771897.212165) vcan0 0E9#E645DF
(1649771897.217796) vcan0 4FB#520C9A1360
(1649771897.223586) vcan0 4A2#721D817C35E0
(1649771897.229016) vcan0 739#30
(1649771897.234418) vcan0 346#B212663715A0E378
(1649771897.239695) vcan0 757#25DFFC382D8E
(1649771897.245274) vcan0 535#399E523971B83325
(1649771897.250805) vcan0 13C#12
(1649771897.256202) vcan0 054#6F1A853F4FB5874F
(1649771897.261846) vcan0 47E#AF
(1649771897.267250) vcan0 317#5571
(1649771897.272668) vcan0 383#EA38413BC9D6
(1649771897.278328) vcan0 080#DF760C32D7CF837D
(1649771897.284109) vcan0 213#055E7C75
(1649771897.289716) vcan0 653#B97727468F971300
(1649771897.295237) vcan0 12F#B459914D83793512
(1649771897.300742) vcan0 7C4#D32EBD61
(1649771897.306490) vcan0 2E5#6385
(1649771897.312100) vcan0 5A4#4D1065362879FF21
(1649771897.317636) vcan0 03E#F14F285BBE108A53
(1649771897.323374) vcan0 4D5#
(1649771897.328795) vcan0 4D4#30563272272BE83A
(1649771897.334517) vcan0 2D9#B6C2FB3A08ACCB36
(1649771897.339987) vcan0 6B5#8B2501497A7E9723
(1649771897.345441) vcan0 08F#BC728B3D742BD975
(1649771897.351269) vcan0 3E1#7139C24C85110A1D
(1649771897.356752) vcan0 6D8#AD8A093F16373A1F
(1649771897.362334) vcan0 2F7#D547C472CC271B59
(1649771897.367556) vcan0 16F#B4BE592A44BEA41F
(1649771897.373137) vcan0 706#6BE98C5A
(1649771897.378733) vcan0 2CD#E74D
(1649771897.384070) vcan0 08D#FDCF
(1649771897.389611) vcan0 7D1#90849229B20BD71C
(1649771897.395428) vcan0 2D9#371D
(1649771897.401054) vcan0 7C1#C760456FB8
(1649771897.406454) vcan0 284#84C26447F323833A
(1649771897.411869) vcan0 107#37E2275A0D383830
(1649771897.417351) vcan0 61C#ECD9ED
(1649771897.423028) vcan0 7C5#6CCA9C
(1649771897.428563) vcan0 346#6E990C1C17633210
(1649771897.434222) vcan0 523#C96E092DFC173E7E
(1649771897.439735) vcan0 400#
(1649771897.445354) vcan0 3E5#797EB923
(1649771897.450877) vcan0 311#5DDA742D181C7445
(1649771897.456239) vcan0 235#2654AC75
(1649771897.461737) vcan0 037#3BD1
(1649771897.467474) vcan0 5E6#4E40E26E2CF1FA
(1649771897.473132) vcan0 611#43542D023413C550
(1649771897.479011) vcan0 7BB#302B034FBBD3810C
(1649771897.484510) vcan0 70C#7DB7F141F282F675
(1649771897.490253) vcan0 751#5B39E868625A
(1649771897.495550) vcan0 6F4#7B76E73F2939A62D
(1649771897.501107) vcan0 04D#7B
(1649771897.506897) vcan0 0B3#8158DA60994E
(1649771897.512359) vcan0 65D#C53F32596E34AF46
(1649771897.518129) vcan0 28C#A2477417476A392B
(1649771897.524093) vcan0 714#023E
(1649771897.529851) vcan0 7AF#1329AE1601EF9E5E
(1649771897.535822) vcan0 376#634912596AA22130
(1649771897.541264) vcan0 627#93DBC75D7446ED33
(1649771897.546999) vcan0 27F#F89E380E3383BB29
(1649771897.552485) vcan0 7C4#CCD1F21022CED413
(1649771897.558087) vcan0 049#9002
(1649771897.563718) vcan0 59A#1C6DB4
(1649771897.569124) vcan0 505#D0A2D270B59C335C
(1649771897.574830) vcan0 09E#B68BD2
(1649771897.580285) vcan0 651#7E6E960578A40A1D
(1649771897.585909) vcan0 4F8#EC
(1649771897.591815) vcan0 720#AAA22725E4
(1649771897.597515) vcan0 15E#0655834BA71113
(1649771897.602992) vcan0 609#7C148E26A32BC4
(1649771897.608400) vcan0 1CA#5228DF35CF5E6F70
(1649771897.614024) vcan0 4B7#84FB
(1649771897.619873) vcan0 705#6999433357C54935
(1649771897.625445) vcan0 454#CF6954524CF138
(1649771897.631237) vcan0 1F8#C310A54318092C76
(1649771897.636597) vcan0 6A1#FD8FDA2DFF5FC050
(1649771897.642031) vcan0 7E5#A771D3
(1649771897.647912) vcan0 49A#91D9EA
(1649771897.653603) vcan0 7BC#343DD427
(1649771897.659365) vcan0 506#C80125350C64AE2F
(1649771897.664981) vcan0 7F3#63
(1649771897.670569) vcan0 318#930D
(1649771897.675919) vcan0 7EE#29FEA6338FC6
(1649771897.681581) vcan0 1C4#8F26D62DA9F9
(1649771897.687469) vcan0 329#97A7FF69C4AF
(1649771897.693062) vcan0 659#288EA9311526AF7F
(1649771897.698894) vcan0 30D#885A05571350306B
(1649771897.704446) vcan0 415#
(1649771897.710203) vcan0 781#4FE0
(1649771897.715651) vcan0 0B5#AA8F
(1649771897.721008) vcan0 438#331FD2
(1649771897.726811) vcan0 3F9#A6D7
(1649771897.732108) vcan0 5F8#E63E9D3D51FC5C38
(1649771897.737714) vcan0 067#67220C387483377D
(1649771897.743159) vcan0 06B#87D36768809CB916
(1649771897.748587) vcan0 140#88609B60C1D0CE
(1649771897.754211) vcan0 529#5B6BA425DED540
(1649771897.759727) vcan0 6B9#822EFD4BF2
(1649771897.764988) vcan0 0D8#EF18FB55D1
(1649771897.770280) vcan0 377#F333BE2B6F
(1649771897.775809) vcan0 7D3#C06D26383A70AF08
(1649771897.781297) vcan0 7E9#AEF3E60554D866
(1649771897.787028) vcan0 517#D574203857E6
(1649771897.792368) vcan0 6DD#18B74E2A06B4B274
(1649771897.798026) vcan0 635#E589F3
(1649771897.803913) vcan0 578#E07F284350A6D4
(1649771897.809171) vcan0 61C#214B3A319399370D
(1649771897.814691) vcan0 165#020B010D38
(1649771897.820092) vcan0 1EF#7369
(1649771897.825499) vcan0 0EA#2C
(1649771897.831266) vcan0 457#58
(1649771897.836726) vcan0 45F#
(1649771897.842459) vcan0 5E4#
(1649771897.847791) vcan0 187#AD991C
(1649771897.853024) vcan0 032#3609ED4E9751AA2E
(1649771897.858377) vcan0 3E3#D04A8E2DD255A32F
(1649771897.863716) vcan0 4FA#AA8799
(1649771897.869042) vcan0 164#E5AB0D0BBC3565
(1649771897.874298) vcan0 0D8#F0A8C32B3765AD18
(1649771897.879902) vcan0 3AE#CBCF66049231F81C
(1649771897.885417) vcan0 14B#EE24402FD2EACE2A
(1649771897.890878) vcan0 6B1#755A846CE376CF7D
(1649771897.896189) vcan0 36A#7BC8792C4D070300
(1649771897.901504) vcan0 7E3#205DA62FDE047538
(1649771897.907194) vcan0 78E#C29AE40EF2D8C551
(1649771897.912552) vcan0 6A1#AE0E2B107A87AA14
(1649771897.918095) vcan0 6E5#B1EC572D934AB647
(1649771897.923393) vcan0 7CA#257CAE6416099D68
(1649771897.928660) vcan0 3CB#E8F36B13
(1649771897.933978) vcan0 7AF#5F6178551903FF34
(1649771897.939286) vcan0 209#670A0235ED29C152
(1649771897.944552) vcan0 525#CB2E360BB30424
(1649771897.949941) vcan0 451#A6DDE93CF3C21E70
(1649771897.955288) vcan0 035#6D4AC904
(1649771897.960536) vcan0 3F3#AE49E16FBE2BC752
(1649771897.965911) vcan0 39B#D434643B
(1649771897.971068) vcan0 6E8#E219553A97C6C906
(1649771897.976242) vcan0 71A#B1C9
(1649771897.981377) vcan0 51C#1153E35C42E2B96D
(1649771897.986567) vcan0 39F#F5E6DD58F0875B38
(1649771897.991889) vcan0 369#E34A7A289F5B4136
(1649771897.997261) vcan0 0F0#
(1649771898.002453) vcan0 46F#A180A73E0AC04443
(1649771898.007727) vcan0 23C#71EFF02524
(1649771898.013176) vcan0 632#BC9725
(1649771898.018960) vcan0 495#707EBE21B229D301
(1649771898.024291) vcan0 585#F4
(1649771898.029807) vcan0 35D#14F9874CC79EEF68
(1649771898.035230) vcan0 785#66FA301F75680F41
(1649771898.040648) vcan0 148#
(1649771898.046179) vcan0 188#C265EF44C563C86E
(1649771898.051645) vcan0 36F#E93424
(1649771898.057212) vcan0 686#EE261B461C
(1649771898.062787) vcan0 612#CE0C0D3D9763F118
(1649771898.068075) vcan0 6E0#BBD4
(1649771898.073414) vcan0 3AB#
(1649771898.079196) vcan0 1C8#A52B471410EBED10
(1649771898.084664) vcan0 08A#C890981213B2DF1E
(1649771898.090297) vcan0 6F8#D815A80D671A7112
(1649771898.095982) vcan0 3BD#09
(1649771898.101241) vcan0 767#5F8DC84879454E
(1649771898.106928) vcan0 055#11A93F07352F6055
(1649771898.112211) vcan0 2EF#73F996229BBE7427
(1649771898.117525) vcan0 39C#CB81AC7A645DAB
(1649771898.122841) vcan0 5E2#75
(1649771898.128180) vcan0 66F#7F30E91F67BDF87C
(1649771898.133587) vcan0 7C7#CED7690F841B22
(1649771898.139350) vcan0 119#C7C5B06780A873
(1649771898.144866) vcan0 6CE#F9EDC137248F49
(1649771898.150534) vcan0 554#59BEA91B44A0BE68
(1649771898.155776) vcan0 4D7#DF5E331073606221
(1649771898.161210) vcan0 244#D8BD0D3E26E01245
(1649771898.166886) vcan0 61B#925E1C468A24FE69
(1649771898.172269) vcan0 78A#F1E1
(1649771898.177903) vcan0 569#
(1649771898.183647) vcan0 597#020F681266541F1E
(1649771898.189103) vcan0 3C3#8AE3686418D12D6C
(1649771898.194934) vcan0 406#5C71EC
(1649771898.200245) vcan0 1B0#5109ED1DF4735155
(1649771898.205650) vcan0 0E5#1A54641A013FD309
(1649771898.211424) vcan0 576#8B63D17300AD7A73
(1649771898.216919) vcan0 1BE#515C0D3728171D5A
(1649771898.222334) vcan0 73D#AA7D1123D47C
(1649771898.227899) vcan0 7C2#3AD10236869B0610
(1649771898.233349) vcan0 1A9#9E6C347C
(1649771898.239033) vcan0 6A8#8DC6590558B0D158
(1649771898.244255) vcan0 635#4C24232E1A5F4026
(1649771898.249562) vcan0 707#1B9E13307D64
(1649771898.255236) vcan0 312#7D115E3AD16C8E
(1649771898.260643) vcan0 724#F983AB496146D64F
(1649771898.266265) vcan0 4F4#35C3B9
(1649771898.272014) vcan0 650#
(1649771898.277456) vcan0 134#A935A92ADC9FA652
(1649771898.283220) vcan0 2D4#3450782B09E1
(1649771898.288481) vcan0 414#
(1649771898.293949) vcan0 4E6#98C76E19F9172B4B
(1649771898.299783) vcan0 7E6#CA84B93A0A
(1649771898.305201) vcan0 6E3#6B6DAE
(1649771898.310764) vcan0 266#8D
(1649771898.316324) vcan0 511#B0B03235450E4D3A
(1649771898.322011) vcan0 5A4#22AEF30C79985806
(1649771898.327929) vcan0 28F#82794A3AA3AE
(1649771898.333187) vcan0 2D7#BE11B435BD5F
(1649771898.338475) vcan0 7E6#B677557FCC77
(1649771898.344069) vcan0 26B#
(1649771898.349496) vcan0 543#25D5
(1649771898.354917) vcan0 4E3#61A8EE
(1649771898.360181) vcan0 67D#3A
(1649771898.365767) vcan0 76B#9A0C600AFA21DC67
(1649771898.371569) vcan0 4B2#9ED0044B892FB56E
(1649771898.376916) vcan0 7C3#478FDF22A9D7E977
(1649771898.382508) vcan0 3B3#764FD7441E6ECB72
(1649771898.388092) vcan0 37E#6D67F35AC108B81A
(1649771898.393723) vcan0 28F#6B18
(1649771898.399551) vcan0 245#6739EE6CC2482A69
(1649771898.404989) vcan0 1DE#E4
(1649771898.410803) vcan0 7FD#437B3745B0C42B05
(1649771898.416039) vcan0 79B#39
(1649771898.421310) vcan0 63E#
(1649771898.426862) vcan0 27E#0F589C53FC8D3915
(1649771898.432084) vcan0 4CB#BD96F12F5B9FD245
(1649771898.437714) vcan0 40F#CED6BF555436DB6A
(1649771898.443540) vcan0 7F5#177F0554D3
(1649771898.449118) vcan0 1D7#1CE3356AD461686F
(1649771898.454917) vcan0 579#
(1649771898.460336) vcan0 241#74E4680A7FD89E50
(1649771898.465728) vcan0 63E#70C26F31BC282B38
(1649771898.471475) vcan0 1FB#
(1649771898.476934) vcan0 1FC#21466F400BD6
(1649771898.482608) vcan0 49F#600C881B946C127F
(1649771898.488072) vcan0 525#68F6EC0BFC86C7
(1649771898.493685) vcan0 772#D0E82F0F
(1649771898.499478) vcan0 7E4#0022935E26
(1649771898.505048) vcan0 213#A5BAD835
(1649771898.510407) vcan0 1F1#0EF19923EC53
(1649771898.515963) vcan0 796#B2FA29659271
(1649771898.521479) vcan0 53C#9E479D50
(1649771898.527266) vcan0 5C3#705EFD64E88AA514
(1649771898.532751) vcan0 775#E4116D34E7A6770C
(1649771898.538520) vcan0 65C#D273057641
(1649771898.544211) vcan0 20A#6748D7
(1649771898.549665) vcan0 447#6EFC081F38EE463E
(1649771898.554939) vcan0 022#2442D428B8174D7B
(1649771898.560260) vcan0 543#4B893D1B7F8AF6
(1649771898.565889) vcan0 5AB#5B7CE1076EDB5F6F
(1649771898.571704) vcan0 4E7#576605045C04B333
(1649771898.577282) vcan0 7A3#43AB2A40FF5DD644
(1649771898.583014) vcan0 2F0#40C47351FA
(1649771898.588298) vcan0 4E8#17B10A7730515D
(1649771898.593720) vcan0 7B4#683FA406D68F
(1649771898.598909) vcan0 302#8FA740754530580C
(1649771898.604140) vcan0 664#C5BA4E2E0F3C0E71
(1649771898.609480) vcan0 1C3#
(1649771898.615043) vcan0 1EB#062B0C08
(1649771898.620368) vcan0 610#8D9FAE450069F518
(1649771898.625639) vcan0 55E#FBE5655C47AA2F09
(1649771898.631377) vcan0 075#77FB
(1649771898.636795) vcan0 498#00105C3F9BDF3A42
(1649771898.642244) vcan0 46C#E00F934ED07A2045
(1649771898.647576) vcan0 069#DFB62E362C
(1649771898.652884) vcan0 1C5#D610CD15B0132156
(1649771898.658072) vcan0 431#3E55F9564142F617
(1649771898.663829) vcan0 225#42ABEB3083077764
(1649771898.669337) vcan0 09A#CAB1A66D0FC9370E
(1649771898.674875) vcan0 04F#39
(1649771898.680112) vcan0 021#834C810C8DA40E1F
(1649771898.685673) vcan0 0C8#5E1F2F
(1649771898.691011) vcan0 709#5DE3274ECE28080B
(1649771898.696419) vcan0 49A#7F3C29
(1649771898.702054) vcan0 00F#0D3301443442DE67
(1649771898.707899) vcan0 689#B749554C23DF9408
(1649771898.713507) vcan0 78C#33A8
(1649771898.719488) vcan0 0C3#C404472DE4909410
(1649771898.725032) vcan0 2A5#7235A32F6D5B02
(1649771898.730589) vcan0 5AA#
(1649771898.735907) vcan0 30D#82FDDA77A8CF2A5F
(1649771898.741425) vcan0 42E#74
(1649771898.746987) vcan0 3BE#71
(1649771898.752437) vcan0 1D1#6B31866E5D416246
(1649771898.757775) vcan0 3AA#39D962296E8C006D
(1649771898.763597) vcan0 30A#521D957DAF15296D
(1649771898.769174) vcan0 744#1C712B32
(1649771898.774977) vcan0 794#A2B12112A2D23A6F
(1649771898.780307) vcan0 5B5#4AA2654E
(1649771898.785801) vcan0 125#2086342DE4B42774
(1649771898.791111) vcan0 63F#2C
(1649771898.796558) vcan0 4BA#6E69583364F059
(1649771898.802161) vcan0 236#D27C5A3540DDB1
(1649771898.807789) vcan0 0A5#F0F2DA2AE9
(1649771898.813305) vcan0 4E9#D82C26697E943221
(1649771898.818975) vcan0 1C7#20676D107C27A804
(1649771898.824330) vcan0 59F#60513B2CC5764568
