(1649770143.855441) vcan0 136#000200000000000C
(1649770143.855471) vcan0 13A#000000000000000A
(1649770143.855477) vcan0 13F#0000000500000000
(1649770143.855481) vcan0 164#0000C01AA8000022
(1649770143.855487) vcan0 17C#0000000010000003
(1649770143.855491) vcan0 18E#00004D
(1649770143.856728) vcan0 1CF#80050000002D
(1649770143.856765) vcan0 1DC#0200002A
(1649770143.856771) vcan0 320#000021
(1649770143.856775) vcan0 324#7465000000000E29
(1649770143.856780) vcan0 37C#FD00FD00097F0029
(1649770143.858009) vcan0 183#0000000800001003
(1649770143.858042) vcan0 143#6B6B00C2
(1649770143.860535) vcan0 095#800007F400000035
(1649770143.860574) vcan0 1A4#0000000800000001
(1649770143.860579) vcan0 1AA#7FFF000000006801
(1649770143.860583) vcan0 1B0#000F0000000148
(1649770143.861082) vcan0 244#0000000172
(1649770143.861891) vcan0 1D0#000000000000000A
(1649770143.863085) vcan0 166#D0320009
(1649770143.864283) vcan0 158#000000000000000A
(1649770143.864323) vcan0 161#000005500108000D
(1649770143.864329) vcan0 039#001B
(1649770143.864333) vcan0 191#010010A1410038
(1649770143.864339) vcan0 133#0000000098
(1649770143.864343) vcan0 136#000200000000001B
(1649770143.865552) vcan0 13A#0000000000000019
(1649770143.865591) vcan0 13F#000000050000001F
(1649770143.865596) vcan0 164#0000C01AA8000031
(1649770143.865601) vcan0 17C#0000000010000012
(1649770143.865605) vcan0 18E#00005C
(1649770143.865609) vcan0 305#8026
(1649770143.867923) vcan0 183#0000000600001014
(1649770143.868005) vcan0 143#6B6B00D1
(1649770143.870638) vcan0 095#800007F400000008
(1649770143.871477) vcan0 244#0000000130
(1649770143.873226) vcan0 166#D0320018
(1649770143.874477) vcan0 158#0000000000000019
(1649770143.874521) vcan0 161#000005500108001C
(1649770143.874528) vcan0 191#010010A141000B
(1649770143.874533) vcan0 133#00000000A7
(1649770143.874539) vcan0 136#000200000000002A
(1649770143.874543) vcan0 13A#0000000000000028
(1649770143.875699) vcan0 13F#000000050000002E
(1649770143.875743) vcan0 164#0000C01AA8000004
(1649770143.875749) vcan0 17C#0000000010000021
(1649770143.875754) vcan0 18E#00006B
(1649770143.875759) vcan0 1CF#80050000003C
(1649770143.875763) vcan0 1DC#02000039
(1649770143.876890) vcan0 183#0000000C0000102D
(1649770143.878100) vcan0 143#6B6B00E0
(1649770143.878142) vcan0 039#002A
(1649770143.880580) vcan0 095#800007F400000017
(1649770143.880638) vcan0 1A4#0000000800000010
(1649770143.880645) vcan0 1AA#7FFF000000006711
(1649770143.880650) vcan0 1B0#000F0000000157
(1649770143.881882) vcan0 1D0#000000000000000A
(1649770143.883130) vcan0 166#D0320027
(1649770143.884442) vcan0 158#0000000000000028
(1649770143.884534) vcan0 161#000005500108002B
(1649770143.884541) vcan0 191#010010A141001A
(1649770143.884546) vcan0 133#00000000B6
(1649770143.884552) vcan0 136#0002000000000039
(1649770143.884557) vcan0 13A#0000000000000037
(1649770143.885868) vcan0 13F#000000050000003D
(1649770143.885940) vcan0 164#0000C01AA8000013
(1649770143.885968) vcan0 17C#0000000010000030
(1649770143.885973) vcan0 18E#00007A
(1649770143.885979) vcan0 294#040B0002CF5A002C
(1649770143.885984) vcan0 21E#03E8374522062F
(1649770143.887183) vcan0 244#00000001E5
(1649770143.887251) vcan0 309#00000000000000B1
(1649770143.888396) vcan0 183#000000090000103F
(1649770143.888413) vcan0 143#6B6B00FF
(1649770143.889626) vcan0 095#800007F400000026
(1649770143.893178) vcan0 166#D0320036
(1649770143.894479) vcan0 158#0000000000000037
(1649770143.894518) vcan0 161#000005500108003A
(1649770143.894526) vcan0 191#010010A1410029
(1649770143.894532) vcan0 039#0039
(1649770143.894539) vcan0 133#0000000089
(1649770143.894545) vcan0 136#000200000000000C
(1649770143.895701) vcan0 13A#000000000000000A
(1649770143.895740) vcan0 13F#0000000500000000
(1649770143.895748) vcan0 164#0000C01AA8000022
(1649770143.895754) vcan0 17C#0000000010000003
(1649770143.895761) vcan0 18E#00004D
(1649770143.895767) vcan0 1CF#80050000000F
(1649770143.896970) vcan0 1DC#0200000C
(1649770143.897006) vcan0 183#0000000E0000100D
(1649770143.897588) vcan0 244#0000000173
(1649770143.898285) vcan0 143#6B6B00C2
(1649770143.900620) vcan0 095#800007F400000035
(1649770143.900659) vcan0 1A4#000000080000002F
(1649770143.900674) vcan0 1AA#7FFF000000006720
(1649770143.900679) vcan0 1B0#000F0000000166
(1649770143.901825) vcan0 1D0#000000000000000A
(1649770143.902958) vcan0 166#D0320009
(1649770143.904143) vcan0 158#000000000000000A
(1649770143.904176) vcan0 161#000005500108000D
(1649770143.904182) vcan0 191#010010A1410038
(1649770143.904187) vcan0 133#0000000098
(1649770143.904192) vcan0 136#000200000000001B
(1649770143.905416) vcan0 13A#0000000000000019
(1649770143.905430) vcan0 13F#000000050000001F
(1649770143.905436) vcan0 164#0000C01AA8000031
(1649770143.905441) vcan0 17C#0000000010000012
(1649770143.905445) vcan0 18E#00005C
(1649770143.907762) vcan0 039#000C
(1649770143.907807) vcan0 183#0000000A00001010
(1649770143.907813) vcan0 143#6B6B00D1
(1649770143.910440) vcan0 095#800007F800000004
(1649770143.912976) vcan0 166#D0320018
(1649770143.913182) vcan0 244#00000001ED
(1649770143.914268) vcan0 158#0000000000000019
(1649770143.914319) vcan0 161#000005500108001C
(1649770143.914364) vcan0 191#010010A141000B
(1649770143.914372) vcan0 133#00000000A7
(1649770143.914378) vcan0 136#000200000000002A
(1649770143.915453) vcan0 13A#0000000000000028
(1649770143.915483) vcan0 13F#000000050000002E
(1649770143.915488) vcan0 164#0000C01AA8000004
(1649770143.915493) vcan0 17C#0000000010000021
(1649770143.915497) vcan0 18E#00006B
(1649770143.916633) vcan0 1CF#80050000001E
(1649770143.916665) vcan0 1DC#0200001B
(1649770143.917848) vcan0 183#0000000700001022
(1649770143.917877) vcan0 143#6B6B00E0
(1649770143.920354) vcan0 095#800007F800000013
(1649770143.920387) vcan0 1A4#000000080000003E
(1649770143.920393) vcan0 1AA#7FFF00000000683E
(1649770143.921629) vcan0 1B0#000F0000000175
(1649770143.921661) vcan0 1D0#000000000000000A
(1649770143.922789) vcan0 166#D0320027
(1649770143.923491) vcan0 244#00000001F9
(1649770143.923979) vcan0 039#001B
(1649770143.924002) vcan0 158#0000000000000028
(1649770143.924008) vcan0 161#000005500108002B
(1649770143.924013) vcan0 191#010010A141001A
(1649770143.924018) vcan0 133#00000000B6
(1649770143.925150) vcan0 136#0002000000000039
(1649770143.925165) vcan0 13A#0000000000000037
(1649770143.925171) vcan0 13F#000000050000003D
(1649770143.925175) vcan0 164#0000C01AA8000013
(1649770143.925179) vcan0 17C#0000000010000030
(1649770143.926437) vcan0 18E#00007A
(1649770143.926481) vcan0 294#040B0002CF5A003B
(1649770143.926489) vcan0 21E#03E8374522063E
(1649770143.927636) vcan0 183#0000000D0000103B
(1649770143.927677) vcan0 143#6B6B00FF
(1649770143.930058) vcan0 095#800007F800000022
(1649770143.932556) vcan0 166#D0320036
(1649770143.933832) vcan0 158#0000000000000037
(1649770143.933874) vcan0 161#000005500108003A
(1649770143.933882) vcan0 191#010010A1410029
(1649770143.935215) vcan0 133#0000000089
(1649770143.935272) vcan0 136#000200000000000C
(1649770143.935280) vcan0 13A#000000000000000A
(1649770143.935287) vcan0 13F#0000000500000000
(1649770143.935293) vcan0 164#0000C01AA8000022
(1649770143.935299) vcan0 17C#0000000010000003
(1649770143.936557) vcan0 18E#00004D
(1649770143.936613) vcan0 1CF#80050000002D
(1649770143.936621) vcan0 1DC#0200002A
(1649770143.936627) vcan0 039#002A
(1649770143.937902) vcan0 183#0000000900001002
(1649770143.937954) vcan0 143#6B6B00C2
(1649770143.939127) vcan0 333#0000000000003C
(1649770143.939149) vcan0 244#00000001B4
(1649770143.940308) vcan0 095#800007F800000031
(1649770143.940340) vcan0 1A4#0000000800000001
(1649770143.940348) vcan0 1AA#7FFF000000006801
(1649770143.941540) vcan0 1B0#000F0000000148
(1649770143.941580) vcan0 1D0#000000000000000A
(1649770143.942819) vcan0 166#D0320009
(1649770143.944053) vcan0 158#000000000000000A
(1649770143.944093) vcan0 161#000005500108000D
(1649770143.944099) vcan0 191#010010A1410038
(1649770143.944104) vcan0 133#0000000098
(1649770143.945283) vcan0 136#000200000000001B
(1649770143.945327) vcan0 13A#0000000000000019
(1649770143.945333) vcan0 13F#000000050000001F
(1649770143.945338) vcan0 164#0000C01AA8000031
(1649770143.945343) vcan0 17C#0000000010000012
(1649770143.945348) vcan0 18E#00005C
(1649770143.947631) vcan0 183#0000000E0000101C
(1649770143.947680) vcan0 143#6B6B00D1
(1649770143.949657) vcan0 244#00000001AA
(1649770143.949957) vcan0 095#800007F800000004
(1649770143.952373) vcan0 166#D0320018
(1649770143.953764) vcan0 158#0000000000000019
(1649770143.953834) vcan0 161#000005500108001C
(1649770143.953842) vcan0 191#010010A141000B
(1649770143.955072) vcan0 133#00000000A7
(1649770143.955147) vcan0 136#000200000000002A
(1649770143.955155) vcan0 13A#0000000000000028
(1649770143.955162) vcan0 13F#000000050000002E
(1649770143.955169) vcan0 164#0000C01AA8000004
(1649770143.955176) vcan0 17C#0000000010000021
(1649770143.956332) vcan0 18E#00006B
(1649770143.956389) vcan0 1CF#80050000003C
(1649770143.956397) vcan0 039#0039
(1649770143.956403) vcan0 1DC#02000039
(1649770143.956410) vcan0 320#000030
(1649770143.956416) vcan0 324#7465000000000E38
(1649770143.957626) vcan0 37C#FD00FD00097F0038
(1649770143.957678) vcan0 40C#0000000004000013
(1649770143.957686) vcan0 183#0000000A0000102F
(1649770143.957693) vcan0 454#23EF18
(1649770143.957727) vcan0 143#6B6B00E0
(1649770143.960206) vcan0 095#800007F800000013
(1649770143.960254) vcan0 1A4#0000000800000010
(1649770143.960260) vcan0 1AA#7FFF000000006711
(1649770143.961567) vcan0 1B0#000F0000000157
(1649770143.961624) vcan0 1D0#000000000000000A
(1649770143.962920) vcan0 166#D0320027
(1649770143.964209) vcan0 158#0000000000000028
(1649770143.964265) vcan0 161#000005500108002B
(1649770143.964273) vcan0 191#010010A141001A
(1649770143.964279) vcan0 133#00000000B6
(1649770143.964287) vcan0 136#0002000000000039
(1649770143.965597) vcan0 244#00000001E6
(1649770143.965674) vcan0 13A#0000000000000037
(1649770143.965689) vcan0 13F#000000050000003D
(1649770143.965696) vcan0 164#0000C01AA8000013
(1649770143.965703) vcan0 17C#0000000010000030
(1649770143.965710) vcan0 18E#00007A
(1649770143.965715) vcan0 294#040B0002CF5A000E
(1649770143.966985) vcan0 21E#03E83745220601
(1649770143.968264) vcan0 183#0000000700001031
(1649770143.968319) vcan0 143#6B6B00FF
(1649770143.969651) vcan0 039#000C
(1649770143.969720) vcan0 305#8035
(1649770143.969729) vcan0 095#800007F800000022
(1649770143.970991) vcan0 188#00000000
(1649770143.972369) vcan0 166#D0320036
(1649770143.973615) vcan0 158#0000000000000037
(1649770143.973666) vcan0 161#000005500108003A
(1649770143.975022) vcan0 191#010010A1410029
(1649770143.975078) vcan0 133#0000000089
(1649770143.975086) vcan0 136#000200000000000C
(1649770143.975091) vcan0 13A#000000000000000A
(1649770143.975096) vcan0 13F#0000000500000000
(1649770143.975100) vcan0 164#0000C01AA8000022
(1649770143.976297) vcan0 17C#0000000010000003
(1649770143.976326) vcan0 244#00000001E3
(1649770143.976351) vcan0 18E#00004D
(1649770143.976358) vcan0 1CF#80050000000F
(1649770143.976362) vcan0 1DC#0200000C
(1649770143.977547) vcan0 183#0000000D0000100E
(1649770143.977582) vcan0 143#6B6B00C2
(1649770143.980127) vcan0 095#800007F800000031
(1649770143.980200) vcan0 1A4#000000080000002F
(1649770143.980207) vcan0 1AA#7FFF000000006720
(1649770143.981564) vcan0 1B0#000F0000000166
(1649770143.981623) vcan0 1D0#000000000000000A
(1649770143.982912) vcan0 166#D0320009
(1649770143.984180) vcan0 158#000000000000000A
(1649770143.984238) vcan0 161#000005500108000D
(1649770143.984247) vcan0 039#001B
(1649770143.984253) vcan0 191#010010A1410038
(1649770143.984259) vcan0 133#0000000098
(1649770143.985528) vcan0 136#000200000000001B
(1649770143.985595) vcan0 13A#0000000000000019
(1649770143.985604) vcan0 13F#000000050000001F
(1649770143.985611) vcan0 164#0000C01AA8000031
(1649770143.985617) vcan0 17C#0000000010000012
(1649770143.985622) vcan0 18E#00005C
(1649770143.986989) vcan0 309#0000000000000084
(1649770143.987045) vcan0 428#01040000521C2F
(1649770143.987053) vcan0 405#0000040000000029
(1649770143.988277) vcan0 183#0000000900001011
(1649770143.988343) vcan0 143#6B6B00D1
(1649770143.990770) vcan0 095#800007F800000004
(1649770143.992227) vcan0 244#00000001DC
(1649770143.993235) vcan0 166#D0320018
(1649770143.994445) vcan0 158#0000000000000019
(1649770143.994494) vcan0 161#000005500108001C
(1649770143.994500) vcan0 191#010010A141000B
(1649770143.994505) vcan0 133#00000000A7
(1649770143.994510) vcan0 136#000200000000002A
(1649770143.994514) vcan0 13A#0000000000000028
(1649770143.995652) vcan0 13F#000000050000002E
(1649770143.995694) vcan0 164#0000C01AA8000004
(1649770143.995700) vcan0 17C#0000000010000021
(1649770143.995705) vcan0 18E#00006B
(1649770143.995709) vcan0 1CF#80050000001E
(1649770143.995714) vcan0 1DC#0200001B
(1649770143.996897) vcan0 183#0000000600001023
(1649770143.998133) vcan0 143#6B6B00E0
(1649770143.999400) vcan0 039#002A
(1649770144.000648) vcan0 095#800007F800000013
(1649770144.000694) vcan0 1A4#000000080000003E
(1649770144.002697) vcan0 244#00000001DA
(1649770144.003146) vcan0 166#D0320009
(1649770144.004333) vcan0 158#000000000000000A
(1649770144.004365) vcan0 161#000005500108000D
(1649770144.004371) vcan0 191#010090A1410030
(1649770144.004376) vcan0 18E#00005C
(1649770144.004382) vcan0 133#0000000098
(1649770144.005568) vcan0 136#000200000000001B
(1649770144.005602) vcan0 13A#0000000000000019
(1649770144.005607) vcan0 13F#000000050000001F
(1649770144.005612) vcan0 164#0000C01AA8000031
(1649770144.005617) vcan0 17C#0000000010000012
(1649770144.006762) vcan0 183#0000000E0000101C
(1649770144.007945) vcan0 039#000C
(1649770144.007971) vcan0 143#6B6B00D1
(1649770144.009132) vcan0 095#800007F400000008
(1649770144.012901) vcan0 166#D0320018
(1649770144.014244) vcan0 158#0000000000000019
(1649770144.014298) vcan0 161#000005500108001C
(1649770144.014307) vcan0 191#010090A1410003
(1649770144.014313) vcan0 164#0000C01AA8000004
(1649770144.014321) vcan0 133#00000000A7
(1649770144.015533) vcan0 136#000200000000002A
(1649770144.015582) vcan0 13A#0000000000000028
(1649770144.015591) vcan0 13F#000000050000002E
(1649770144.015597) vcan0 17C#0000000010000021
(1649770144.015605) vcan0 18E#00006B
(1649770144.015611) vcan0 1CF#80050000003C
(1649770144.015617) vcan0 1DC#02000039
(1649770144.016814) vcan0 320#000030
(1649770144.016857) vcan0 324#7465000000000E38
(1649770144.016865) vcan0 183#0000000A0000102F
(1649770144.016871) vcan0 37C#FD00FD00097F0038
(1649770144.018241) vcan0 244#00000001B3
(1649770144.018386) vcan0 143#6B6B00E0
(1649770144.019514) vcan0 095#800007F400000017
(1649770144.020827) vcan0 1A4#0000000800000010
(1649770144.020875) vcan0 1AA#7FFF000000006810
(1649770144.020881) vcan0 1B0#000F0000000157
(1649770144.020887) vcan0 1D0#000000000000000A
(1649770144.022045) vcan0 039#001B
(1649770144.022086) vcan0 166#D0320027
(1649770144.023247) vcan0 158#0000000000000028
(1649770144.024586) vcan0 161#000005500108002B
(1649770144.024630) vcan0 191#010090A1410012
(1649770144.024638) vcan0 164#0000C01AA8000013
(1649770144.024645) vcan0 133#00000000B6
(1649770144.024651) vcan0 136#0002000000000039
(1649770144.025947) vcan0 13A#0000000000000037
(1649770144.025994) vcan0 13F#000000050000003D
(1649770144.026002) vcan0 17C#0000000010000030
(1649770144.026008) vcan0 18E#00007A
(1649770144.026014) vcan0 294#040B0002CF5A000E
(1649770144.026020) vcan0 21E#03E83745220601
(1649770144.027370) vcan0 183#0000000F00001039
(1649770144.028768) vcan0 143#6B6B00FF
(1649770144.028781) vcan0 244#000000010A
(1649770144.030033) vcan0 095#800007F400000026
(1649770144.032443) vcan0 166#D0320036
(1649770144.033695) vcan0 158#0000000000000037
(1649770144.033744) vcan0 161#000005500108003A
(1649770144.033752) vcan0 164#0000C01AA8000022
(1649770144.034992) vcan0 191#010090A1410021
(1649770144.035043) vcan0 133#0000000089
(1649770144.035051) vcan0 136#000200000000000C
(1649770144.035057) vcan0 13A#000000000000000A
(1649770144.035063) vcan0 13F#0000000500000000
(1649770144.035069) vcan0 17C#0000000010000003
(1649770144.036364) vcan0 18E#00004D
(1649770144.036388) vcan0 1CF#80050000000F
(1649770144.036394) vcan0 1DC#0200000C
(1649770144.036399) vcan0 183#0000000B00001000
(1649770144.037618) vcan0 143#6B6B00C2
(1649770144.039941) vcan0 095#800007F400000035
(1649770144.039977) vcan0 1A4#000000080000002F
(1649770144.041254) vcan0 1AA#7FFF00000000682F
(1649770144.041288) vcan0 1B0#000F0000000166
(1649770144.041294) vcan0 1D0#000000000000000A
(1649770144.042560) vcan0 166#D0320009
(1649770144.043799) vcan0 158#000000000000000A
(1649770144.043842) vcan0 161#000005500108000D
(1649770144.043850) vcan0 191#010090A1410030
(1649770144.044352) vcan0 244#00000001E8
(1649770144.045019) vcan0 164#0000C01AA8000031
(1649770144.045036) vcan0 133#0000000098
(1649770144.045043) vcan0 136#000200000000001B
(1649770144.045048) vcan0 039#002A
(1649770144.045056) vcan0 13A#0000000000000019
(1649770144.045062) vcan0 13F#000000050000001F
(1649770144.046205) vcan0 17C#0000000010000012
(1649770144.046234) vcan0 18E#00005C
(1649770144.046240) vcan0 309#0000000000000084
(1649770144.047387) vcan0 183#0000000800001012
(1649770144.048529) vcan0 143#6B6B00D1
(1649770144.049645) vcan0 095#800007F400000008
(1649770144.052071) vcan0 166#D0320018
(1649770144.053446) vcan0 158#0000000000000019
(1649770144.053495) vcan0 161#000005500108001C
(1649770144.054590) vcan0 191#010090A1410003
(1649770144.054643) vcan0 164#0000C01AA8000004
(1649770144.054650) vcan0 133#00000000A7
(1649770144.054655) vcan0 136#000200000000002A
(1649770144.054660) vcan0 13A#0000000000000028
(1649770144.055839) vcan0 13F#000000050000002E
(1649770144.055897) vcan0 17C#0000000010000021
(1649770144.055904) vcan0 18E#00006B
(1649770144.055909) vcan0 1CF#80050000001E
(1649770144.055914) vcan0 1DC#0200001B
(1649770144.057132) vcan0 183#0000000600001023
(1649770144.058486) vcan0 143#6B6B00E0
(1649770144.058552) vcan0 039#0039
(1649770144.059716) vcan0 095#800007F400000017
(1649770144.060142) vcan0 244#000000013C
(1649770144.061178) vcan0 1A4#000000080000003E
(1649770144.061217) vcan0 1AA#7FFF00000000673F
(1649770144.061224) vcan0 1B0#000F0000000175
(1649770144.061230) vcan0 1D0#000000000000000A
(1649770144.062413) vcan0 166#D0320027
(1649770144.063588) vcan0 158#0000000000000028
(1649770144.063629) vcan0 161#000005500108002B
(1649770144.064822) vcan0 191#010090A1410012
(1649770144.064863) vcan0 164#0000C01AA8000013
(1649770144.064869) vcan0 133#00000000B6
(1649770144.064874) vcan0 136#0002000000000039
(1649770144.064878) vcan0 13A#0000000000000037
(1649770144.066076) vcan0 13F#000000050000003D
(1649770144.066116) vcan0 17C#0000000010000030
(1649770144.066123) vcan0 18E#00007A
(1649770144.066128) vcan0 294#040B0002CF5A001D
(1649770144.066132) vcan0 21E#03E83745220610
(1649770144.067388) vcan0 183#0000000400001034
(1649770144.068628) vcan0 143#6B6B00FF
(1649770144.069803) vcan0 095#800007F400000026
(1649770144.070669) vcan0 244#00000001AA
(1649770144.072244) vcan0 166#D0320036
(1649770144.073496) vcan0 039#000C
(1649770144.073542) vcan0 158#0000000000000037
(1649770144.073548) vcan0 161#000005500108003A
(1649770144.074756) vcan0 164#0000C01AA8000022
(1649770144.074805) vcan0 191#010090A1410021
(1649770144.074811) vcan0 133#0000000089
(1649770144.074815) vcan0 136#000200000000000C
(1649770144.074820) vcan0 13A#000000000000000A
(1649770144.074824) vcan0 13F#0000000500000000
(1649770144.075963) vcan0 17C#0000000010000003
(1649770144.076008) vcan0 18E#00004D
(1649770144.076014) vcan0 1CF#80050000002D
(1649770144.076018) vcan0 1DC#0200002A
(1649770144.076023) vcan0 183#0000000A00001001
(1649770144.078721) vcan0 143#6B6B00C2
(1649770144.079979) vcan0 095#800007F400000035
(1649770144.080033) vcan0 1A4#0000000800000001
(1649770144.081234) vcan0 1AA#7FFF000000006702
(1649770144.081296) vcan0 1B0#000F0000000148
(1649770144.081304) vcan0 1D0#000000000000000A
(1649770144.082589) vcan0 166#D0320009
(1649770144.083813) vcan0 158#000000000000000A
(1649770144.083871) vcan0 161#000005500108000D
(1649770144.083879) vcan0 191#010090A1410030
(1649770144.085157) vcan0 164#0000C01AA8000031
(1649770144.085214) vcan0 133#0000000098
(1649770144.085222) vcan0 136#000200000000001B
(1649770144.085228) vcan0 13A#0000000000000019
(1649770144.085234) vcan0 13F#000000050000001F
(1649770144.085240) vcan0 17C#0000000010000012
(1649770144.086527) vcan0 18E#00005C
(1649770144.086567) vcan0 244#0000000145
(1649770144.086584) vcan0 039#001B
(1649770144.086593) vcan0 183#0000000700001013
(1649770144.087752) vcan0 143#6B6B00D1
(1649770144.090245) vcan0 095#800007F400000008
(1649770144.092753) vcan0 166#D0320018
(1649770144.094136) vcan0 158#0000000000000019
(1649770144.094199) vcan0 161#000005500108001C
(1649770144.094208) vcan0 191#010090A1410003
(1649770144.094214) vcan0 164#0000C01AA8000004
(1649770144.094220) vcan0 133#00000000A7
(1649770144.095580) vcan0 136#000200000000002A
(1649770144.095637) vcan0 13A#0000000000000028
(1649770144.095645) vcan0 13F#000000050000002E
(1649770144.095651) vcan0 17C#0000000010000021
(1649770144.095657) vcan0 18E#00006B
(1649770144.095663) vcan0 1CF#80050000003C
(1649770144.095670) vcan0 1DC#02000039
(1649770144.096965) vcan0 183#0000000500001024
(1649770144.098241) vcan0 143#6B6B00E0
(1649770144.098308) vcan0 333#0000000000000F
(1649770144.099524) vcan0 095#800007F400000017
(1649770144.099584) vcan0 039#002A
(1649770144.100881) vcan0 1A4#0000000800000010
(1649770144.100945) vcan0 305#8017
(1649770144.100953) vcan0 1AA#7FFF000000006810
(1649770144.100959) vcan0 1B0#000F0000000157
(1649770144.100967) vcan0 1D0#000000000000000A
(1649770144.102332) vcan0 166#D0320027
(1649770144.102375) vcan0 244#00000001B9
(1649770144.103567) vcan0 158#0000000000000028
(1649770144.103623) vcan0 161#000005500108002B
(1649770144.104906) vcan0 191#010090A1410012
(1649770144.104960) vcan0 18E#00007A
(1649770144.104982) vcan0 133#00000000B6
(1649770144.104990) vcan0 136#0002000000000039
(1649770144.104995) vcan0 13A#0000000000000037
(1649770144.104999) vcan0 13F#000000050000003D
(1649770144.106176) vcan0 164#0000C01AA8000013
(1649770144.106218) vcan0 17C#0000000010000030
(1649770144.106224) vcan0 294#040B0002CF5A002C
(1649770144.106229) vcan0 21E#03E8374522062F
(1649770144.107379) vcan0 183#0000000B0000103D
(1649770144.108557) vcan0 143#6B6B00FF
(1649770144.109885) vcan0 095#800007F400000026
(1649770144.112471) vcan0 039#0039
(1649770144.112527) vcan0 166#D0320036
(1649770144.113827) vcan0 158#0000000000000037
(1649770144.113894) vcan0 161#000005500108003A
(1649770144.113902) vcan0 191#010010A1410029
(1649770144.115187) vcan0 164#0000C01AA8000022
(1649770144.115256) vcan0 133#0000000089
(1649770144.115264) vcan0 136#000200000000000C
(1649770144.115270) vcan0 13A#000000000000000A
(1649770144.115276) vcan0 13F#0000000500000000
(1649770144.115282) vcan0 17C#0000000010000003
(1649770144.116610) vcan0 18E#00004D
(1649770144.116678) vcan0 1CF#80050000000F
(1649770144.116686) vcan0 1DC#0200000C
(1649770144.116692) vcan0 320#000003
(1649770144.116698) vcan0 183#0000000800001003
(1649770144.116704) vcan0 324#7465000000000E0B
(1649770144.116711) vcan0 37C#FD00FD00097F000B
(1649770144.118054) vcan0 143#6B6B00C2
(1649770144.118105) vcan0 244#00000001BA
(1649770144.119331) vcan0 095#800007F400000035
(1649770144.120772) vcan0 1A4#000000080000002F
(1649770144.120832) vcan0 1AA#7FFF00000000682F
(1649770144.120838) vcan0 1B0#000F0000000166
(1649770144.120843) vcan0 1D0#000000000000000A
(1649770144.122054) vcan0 166#D0320009
(1649770144.123331) vcan0 158#000000000000000A
(1649770144.124552) vcan0 161#000005500108000D
(1649770144.124586) vcan0 191#010010A1410038
(1649770144.124592) vcan0 18E#00005C
(1649770144.124596) vcan0 133#0000000098
(1649770144.124601) vcan0 136#000200000000001B
(1649770144.125927) vcan0 13A#0000000000000019
(1649770144.125970) vcan0 13F#000000050000001F
(1649770144.125976) vcan0 164#0000C01AA8000031
(1649770144.125981) vcan0 17C#0000000010000012
(1649770144.127295) vcan0 183#0000000600001014
(1649770144.127411) vcan0 039#000C
(1649770144.128657) vcan0 244#0000000146
(1649770144.128689) vcan0 143#6B6B00D1
(1649770144.129935) vcan0 095#800007F400000008
(1649770144.132382) vcan0 166#D0320018
(1649770144.133635) vcan0 158#0000000000000019
(1649770144.133667) vcan0 161#000005500108001C
(1649770144.133673) vcan0 191#010010A141000B
(1649770144.134907) vcan0 164#0000C01AA8000004
(1649770144.134938) vcan0 133#00000000A7
(1649770144.134944) vcan0 136#000200000000002A
(1649770144.134949) vcan0 13A#0000000000000028
(1649770144.134955) vcan0 13F#000000050000002E
(1649770144.136203) vcan0 17C#0000000010000021
(1649770144.136234) vcan0 18E#00006B
(1649770144.136240) vcan0 1CF#80050000001E
(1649770144.136245) vcan0 1DC#0200001B
(1649770144.136250) vcan0 183#0000000400001025
(1649770144.138736) vcan0 143#6B6B00E0
(1649770144.139942) vcan0 095#800007F400000017
(1649770144.141244) vcan0 1A4#000000080000003E
(1649770144.141313) vcan0 039#001B
(1649770144.141319) vcan0 1AA#7FFF00000000673F
(1649770144.141324) vcan0 1B0#000F0000000175
(1649770144.141330) vcan0 1D0#000000000000000A
(1649770144.142623) vcan0 166#D0320027
(1649770144.143828) vcan0 158#0000000000000028
(1649770144.143865) vcan0 161#000005500108002B
(1649770144.143871) vcan0 191#010010A141001A
(1649770144.144228) vcan0 244#000000015F
(1649770144.145122) vcan0 164#0000C01AA8000013
(1649770144.145153) vcan0 133#00000000B6
(1649770144.145159) vcan0 136#0002000000000039
(1649770144.145164) vcan0 13A#0000000000000037
(1649770144.145170) vcan0 13F#000000050000003D
(1649770144.145174) vcan0 17C#0000000010000030
(1649770144.146333) vcan0 18E#00007A
(1649770144.146384) vcan0 294#040B0002CF5A003B
(1649770144.146390) vcan0 21E#03E8374522063E
(1649770144.146395) vcan0 309#0000000000000093
(1649770144.147522) vcan0 183#0000000300001035
(1649770144.147546) vcan0 143#6B6B00FF
(1649770144.149946) vcan0 095#800007F400000026
(1649770144.152339) vcan0 166#D0320036
(1649770144.153558) vcan0 158#0000000000000037
(1649770144.153586) vcan0 161#000005500108003A
(1649770144.153592) vcan0 039#002A
(1649770144.154632) vcan0 244#000000015F
(1649770144.154740) vcan0 191#010010A1410029
(1649770144.154752) vcan0 164#0000C01AA8000022
(1649770144.154757) vcan0 133#0000000089
(1649770144.154761) vcan0 136#000200000000000C
(1649770144.154766) vcan0 13A#000000000000000A
(1649770144.155931) vcan0 13F#0000000500000000
(1649770144.155960) vcan0 17C#0000000010000003
(1649770144.155966) vcan0 18E#00004D
(1649770144.155970) vcan0 1CF#80050000002D
(1649770144.155975) vcan0 1DC#0200002A
(1649770144.157243) vcan0 183#0000000A00001001
(1649770144.158525) vcan0 143#6B6B00C2
(1649770144.159680) vcan0 095#800007F400000035
(1649770144.160962) vcan0 1A4#0000000800000001
(1649770144.160995) vcan0 1AA#7FFF000000006702
(1649770144.161001) vcan0 1B0#000F0000000148
(1649770144.161005) vcan0 1D0#000000000000000A
(1649770144.162289) vcan0 166#D0320009
(1649770144.163523) vcan0 158#000000000000000A
(1649770144.163565) vcan0 161#000005500108000D
(1649770144.164891) vcan0 191#010010A1410038
(1649770144.164936) vcan0 18E#00005C
(1649770144.164944) vcan0 133#0000000098
(1649770144.164951) vcan0 136#000200000000001B
(1649770144.164957) vcan0 13A#0000000000000019
(1649770144.164963) vcan0 13F#000000050000001F
(1649770144.166235) vcan0 164#0000C01AA8000031
(1649770144.166279) vcan0 17C#0000000010000012
(1649770144.167592) vcan0 183#0000000700001013
(1649770144.167612) vcan0 143#6B6B00D1
(1649770144.170228) vcan0 095#800007F400000008
(1649770144.170259) vcan0 039#0039
(1649770144.170273) vcan0 244#000000015A
(1649770144.172564) vcan0 166#D0320018
(1649770144.173784) vcan0 158#0000000000000019
(1649770144.173837) vcan0 161#000005500108001C
(1649770144.173843) vcan0 191#010010A141000B
(1649770144.175135) vcan0 164#0000C01AA8000004
(1649770144.175191) vcan0 133#00000000A7
(1649770144.175198) vcan0 136#000200000000002A
(1649770144.175202) vcan0 13A#0000000000000028
(1649770144.175206) vcan0 13F#000000050000002E
(1649770144.175211) vcan0 17C#0000000010000021
(1649770144.176497) vcan0 18E#00006B
(1649770144.176544) vcan0 1CF#80050000003C
(1649770144.176550) vcan0 1DC#02000039
(1649770144.176555) vcan0 183#0000000500001024
(1649770144.177918) vcan0 143#6B6B00E0
(1649770144.179324) vcan0 095#800007F400000017
(1649770144.180780) vcan0 1A4#0000000800000010
(1649770144.180858) vcan0 1AA#7FFF000000006810
(1649770144.180867) vcan0 1B0#000F0000000157
(1649770144.180873) vcan0 1D0#000000000000000A
(1649770144.182198) vcan0 166#D0320027
(1649770144.183601) vcan0 039#000C
(1649770144.183655) vcan0 158#0000000000000028
(1649770144.183664) vcan0 161#000005500108002B
(1649770144.183670) vcan0 191#010010A141001A
(1649770144.185077) vcan0 164#0000C01AA8000013
(1649770144.185148) vcan0 133#00000000B6
(1649770144.185157) vcan0 136#0002000000000039
(1649770144.185162) vcan0 13A#0000000000000037
(1649770144.185168) vcan0 13F#000000050000003D
(1649770144.186246) vcan0 244#00000001E8
(1649770144.186355) vcan0 17C#0000000010000030
(1649770144.186373) vcan0 18E#00007A
(1649770144.186380) vcan0 294#040B0002CF5A000E
(1649770144.186385) vcan0 21E#03E83745220601
(1649770144.187531) vcan0 183#0000000300001035
(1649770144.187569) vcan0 143#6B6B00FF
(1649770144.189966) vcan0 095#800007F400000026
(1649770144.192491) vcan0 166#D0320036
(1649770144.193870) vcan0 158#0000000000000037
(1649770144.193928) vcan0 161#000005500108003A
(1649770144.193937) vcan0 191#010010A1410029
(1649770144.195227) vcan0 18E#00004D
(1649770144.195282) vcan0 133#0000000089
(1649770144.195291) vcan0 136#000200000000000C
(1649770144.195298) vcan0 13A#000000000000000A
(1649770144.195313) vcan0 13F#0000000500000000
(1649770144.195323) vcan0 164#0000C01AA8000022
(1649770144.196610) vcan0 17C#0000000010000003
(1649770144.196669) vcan0 1CF#80050000000F
(1649770144.196668) vcan0 244#00000001B5
(1649770144.196678) vcan0 1DC#0200000C
(1649770144.196684) vcan0 183#0000000200001009
(1649770144.197871) vcan0 143#6B6B00C2
(1649770144.199115) vcan0 333#0000000000001E
(1649770144.199160) vcan0 095#800007F400000035
(1649770144.200462) vcan0 1A4#000000080000002F
(1649770144.200518) vcan0 1AA#7FFF00000000682F
(1649770144.200526) vcan0 1B0#000F0000000166
(1649770144.201853) vcan0 039#001B
(1649770144.201883) vcan0 1D0#000000000000000A
(1649770144.201891) vcan0 305#8026
(1649770144.203217) vcan0 166#D0320009
(1649770144.203272) vcan0 158#000000000000000A
(1649770144.204495) vcan0 161#000005500108000D
(1649770144.204562) vcan0 191#010010A1410038
(1649770144.204570) vcan0 18E#00005C
(1649770144.204577) vcan0 133#0000000098
(1649770144.204583) vcan0 136#000200000000001B
(1649770144.205776) vcan0 13A#0000000000000019
(1649770144.205817) vcan0 13F#000000050000001F
(1649770144.205825) vcan0 164#0000C01AA8000031
(1649770144.205830) vcan0 17C#0000000010000012
(1649770144.207089) vcan0 183#0000000900001011
(1649770144.208381) vcan0 143#6B6B00D1
(1649770144.209815) vcan0 095#800007F400000008
(1649770144.212315) vcan0 166#D0320018
(1649770144.212356) vcan0 244#0000000132
(1649770144.213591) vcan0 158#0000000000000019
(1649770144.213636) vcan0 161#000005500108001C
(1649770144.214920) vcan0 191#010010A141000B
(1649770144.214965) vcan0 164#0000C01AA8000004
(1649770144.214971) vcan0 133#00000000A7
(1649770144.214976) vcan0 136#000200000000002A
(1649770144.214980) vcan0 13A#0000000000000028
(1649770144.214985) vcan0 13F#000000050000002E
(1649770144.216231) vcan0 17C#0000000010000021
(1649770144.216273) vcan0 18E#00006B
(1649770144.216279) vcan0 1CF#80050000001E
(1649770144.216283) vcan0 039#002A
(1649770144.216288) vcan0 1DC#0200001B
(1649770144.216292) vcan0 320#000012
(1649770144.216297) vcan0 183#0000000600001023
(1649770144.217550) vcan0 324#7465000000000E1A
(1649770144.217572) vcan0 37C#FD00FD00097F001A
(1649770144.217577) vcan0 40C#0236323239533039
(1649770144.217582) vcan0 454#23EF36
(1649770144.217586) vcan0 143#6B6B00E0
(1649770144.220051) vcan0 095#800007F400000017
(1649770144.220087) vcan0 1A4#000000080000003E
(1649770144.221264) vcan0 1AA#7FFF00000000673F
(1649770144.221304) vcan0 1B0#000F0000000175
(1649770144.221311) vcan0 1D0#000000000000000A
(1649770144.222560) vcan0 166#D0320027
(1649770144.223775) vcan0 158#0000000000000028
(1649770144.223820) vcan0 161#000005500108002B
(1649770144.223828) vcan0 191#010010A141001A
(1649770144.225060) vcan0 133#00000000B6
(1649770144.225102) vcan0 136#0002000000000039
(1649770144.225110) vcan0 13A#0000000000000037
(1649770144.225116) vcan0 13F#000000050000003D
(1649770144.225122) vcan0 164#0000C01AA8000013
(1649770144.226412) vcan0 17C#0000000010000030
(1649770144.226454) vcan0 18E#00007A
(1649770144.226463) vcan0 294#040B0002CF5A001D
(1649770144.226469) vcan0 21E#03E83745220610
(1649770144.227670) vcan0 183#0000000400001034
(1649770144.227712) vcan0 143#6B6B00FF
(1649770144.228004) vcan0 244#000000010B
(1649770144.230326) vcan0 095#800007F400000026
(1649770144.230360) vcan0 039#0039
(1649770144.232663) vcan0 166#D0320036
(1649770144.233948) vcan0 158#0000000000000037
(1649770144.233979) vcan0 161#000005500108003A
(1649770144.233986) vcan0 191#010010A1410029
(1649770144.233991) vcan0 164#0000C01AA8000022
(1649770144.235240) vcan0 133#0000000089
(1649770144.235283) vcan0 136#000200000000000C
(1649770144.235291) vcan0 13A#000000000000000A
(1649770144.235297) vcan0 13F#0000000500000000
(1649770144.235302) vcan0 17C#0000000010000003
(1649770144.235308) vcan0 18E#00004D
(1649770144.236567) vcan0 1CF#80050000002D
(1649770144.236607) vcan0 1DC#0200002A
(1649770144.236614) vcan0 183#0000000A00001001
(1649770144.237901) vcan0 143#6B6B00C2
(1649770144.238483) vcan0 244#00000001C1
(1649770144.240295) vcan0 095#800007F400000035
(1649770144.240338) vcan0 1A4#0000000800000001
(1649770144.240344) vcan0 1AA#7FFF000000006702
(1649770144.241509) vcan0 1B0#000F0000000148
(1649770144.241558) vcan0 1D0#000000000000000A
(1649770144.242883) vcan0 166#D0320009
(1649770144.244100) vcan0 158#000000000000000A
(1649770144.244144) vcan0 161#000005500108000D
(1649770144.244151) vcan0 039#000C
(1649770144.244155) vcan0 191#010010A1410038
(1649770144.244160) vcan0 164#0000C01AA8000031
(1649770144.245447) vcan0 133#0000000098
(1649770144.245509) vcan0 136#000200000000001B
(1649770144.245517) vcan0 13A#0000000000000019
(1649770144.245523) vcan0 13F#000000050000001F
(1649770144.245529) vcan0 17C#0000000010000012
(1649770144.245555) vcan0 18E#00005C
(1649770144.246839) vcan0 309#00000000000000A2
(1649770144.246897) vcan0 428#01040000521C01
(1649770144.246904) vcan0 405#000004000000000B
(1649770144.246909) vcan0 183#0000000700001013
(1649770144.248078) vcan0 143#6B6B00D1
(1649770144.249292) vcan0 095#800007F400000008
(1649770144.253101) vcan0 166#D0320018
(1649770144.254247) vcan0 244#0000000157
(1649770144.254286) vcan0 158#0000000000000019
(1649770144.254309) vcan0 161#000005500108001C
(1649770144.254316) vcan0 191#010010A141000B
(1649770144.254323) vcan0 164#0000C01AA8000004
(1649770144.254329) vcan0 133#00000000A7
(1649770144.254335) vcan0 136#000200000000002A
(1649770144.255468) vcan0 13A#0000000000000028
(1649770144.255484) vcan0 13F#000000050000002E
(1649770144.255491) vcan0 17C#0000000010000021
(1649770144.255497) vcan0 18E#00006B
(1649770144.255505) vcan0 1CF#80050000003C
(1649770144.256714) vcan0 1DC#02000039
(1649770144.256746) vcan0 183#0000000500001024
(1649770144.256752) vcan0 039#001B
(1649770144.258005) vcan0 143#6B6B00E0
(1649770144.259348) vcan0 095#800007F400000017
(1649770144.260677) vcan0 1A4#0000000800000010
(1649770144.260733) vcan0 1AA#7FFF000000006810
(1649770144.260742) vcan0 1B0#000F0000000157
(1649770144.260748) vcan0 1D0#000000000000000A
(1649770144.262041) vcan0 166#D0320027
(1649770144.263445) vcan0 158#0000000000000028
(1649770144.263485) vcan0 161#000005500108002B
(1649770144.264786) vcan0 191#010010A141001A
(1649770144.264842) vcan0 164#0000C01AA8000013
(1649770144.264841) vcan0 244#0000000198
(1649770144.264850) vcan0 133#00000000B6
(1649770144.264857) vcan0 136#0002000000000039
(1649770144.264863) vcan0 13A#0000000000000037
(1649770144.266133) vcan0 13F#000000050000003D
(1649770144.266173) vcan0 17C#0000000010000030
(1649770144.266180) vcan0 18E#00007A
(1649770144.266186) vcan0 294#040B0002CF5A002C
(1649770144.266192) vcan0 21E#03E8374522062F
(1649770144.267531) vcan0 183#0000000B0000103D
(1649770144.267584) vcan0 143#6B6B00FF
(1649770144.270269) vcan0 095#800007F400000026
(1649770144.271572) vcan0 039#002A
(1649770144.272773) vcan0 166#D0320036
(1649770144.274069) vcan0 158#0000000000000037
(1649770144.274122) vcan0 161#000005500108003A
(1649770144.274130) vcan0 191#010010A1410029
(1649770144.274136) vcan0 164#0000C01AA8000022
(1649770144.274142) vcan0 133#0000000089
(1649770144.275514) vcan0 136#000200000000000C
(1649770144.275559) vcan0 13A#000000000000000A
(1649770144.275567) vcan0 13F#0000000500000000
(1649770144.275573) vcan0 17C#0000000010000003
(1649770144.275579) vcan0 18E#00004D
(1649770144.275585) vcan0 1CF#80050000000F
(1649770144.275588) vcan0 244#000000014E
(1649770144.275591) vcan0 1DC#0200000C
(1649770144.276873) vcan0 183#0000000800001003
(1649770144.278146) vcan0 143#6B6B00C2
(1649770144.279492) vcan0 095#800007F400000035
(1649770144.280913) vcan0 1A4#000000080000002F
(1649770144.280982) vcan0 1AA#7FFF00000000682F
(1649770144.280990) vcan0 1B0#000F0000000166
(1649770144.280997) vcan0 1D0#000000000000000A
(1649770144.282333) vcan0 166#D0320009
(1649770144.283552) vcan0 158#000000000000000A
(1649770144.283617) vcan0 161#000005500108000D
(1649770144.284873) vcan0 191#010010A1410038
(1649770144.284934) vcan0 164#0000C01AA8000031
(1649770144.284942) vcan0 133#0000000098
(1649770144.284948) vcan0 136#000200000000001B
(1649770144.284954) vcan0 039#0039
(1649770144.284960) vcan0 13A#0000000000000019
(1649770144.286173) vcan0 13F#000000050000001F
(1649770144.286229) vcan0 17C#0000000010000012
(1649770144.286238) vcan0 18E#00005C
(1649770144.287556) vcan0 183#0000000D0000101D
(1649770144.287589) vcan0 143#6B6B00D1
(1649770144.289927) vcan0 095#800007F400000008
(1649770144.291342) vcan0 244#0000000124
(1649770144.292461) vcan0 166#D0320018
(1649770144.293680) vcan0 158#0000000000000019
(1649770144.293741) vcan0 161#000005500108001C
(1649770144.293747) vcan0 191#010010A141000B
(1649770144.294918) vcan0 164#0000C01AA8000004
(1649770144.294960) vcan0 133#00000000A7
(1649770144.294967) vcan0 136#000200000000002A
(1649770144.294971) vcan0 13A#0000000000000028
(1649770144.294977) vcan0 13F#000000050000002E
(1649770144.296216) vcan0 17C#0000000010000021
(1649770144.296258) vcan0 18E#00006B
(1649770144.296264) vcan0 1CF#80050000001E
(1649770144.296269) vcan0 1DC#0200001B
(1649770144.296274) vcan0 183#0000000900001020
(1649770144.297509) vcan0 143#6B6B00E0
(1649770144.298698) vcan0 333#0000000000002D
(1649770144.298738) vcan0 039#000C
(1649770144.299951) vcan0 095#800007F400000017
(1649770144.301263) vcan0 1A4#000000080000003E
(1649770144.301314) vcan0 1AA#7FFF00000000673F
(1649770144.301322) vcan0 1B0#000F0000000175
(1649770144.301328) vcan0 1D0#000000000000000A
(1649770144.302513) vcan0 166#D0320027
(1649770144.303705) vcan0 158#0000000000000028
(1649770144.303764) vcan0 161#000005500108002B
(1649770144.303773) vcan0 191#010010A141001A
(1649770144.305016) vcan0 18E#00007A
(1649770144.305074) vcan0 133#00000000B6
(1649770144.305082) vcan0 136#0002000000000039
(1649770144.305088) vcan0 13A#0000000000000037
(1649770144.305094) vcan0 13F#000000050000003D
(1649770144.305100) vcan0 164#0000C01AA8000013
(1649770144.306400) vcan0 17C#0000000010000030
(1649770144.306457) vcan0 294#040B0002CF5A003B
(1649770144.306466) vcan0 305#8035
(1649770144.306472) vcan0 21E#03E8374522063E
(1649770144.307048) vcan0 244#0000000119
(1649770144.307669) vcan0 183#0000000600001032
(1649770144.307717) vcan0 143#6B6B00FF
(1649770144.310284) vcan0 095#800007F400000026
(1649770144.312738) vcan0 166#D0320036
(1649770144.312766) vcan0 039#001B
(1649770144.314071) vcan0 158#0000000000000037
(1649770144.314102) vcan0 161#000005500108003A
(1649770144.314110) vcan0 191#010010A1410029
(1649770144.314116) vcan0 164#0000C01AA8000022
(1649770144.315287) vcan0 133#0000000089
(1649770144.315311) vcan0 136#000200000000000C
(1649770144.315317) vcan0 13A#000000000000000A
(1649770144.315323) vcan0 13F#0000000500000000
(1649770144.315330) vcan0 17C#0000000010000003
(1649770144.315336) vcan0 18E#00004D
(1649770144.316609) vcan0 1CF#80050000002D
(1649770144.316636) vcan0 1DC#0200002A
(1649770144.316643) vcan0 320#000021
(1649770144.316650) vcan0 183#0000000C0000100F
(1649770144.316656) vcan0 324#7465000000000E29
(1649770144.316662) vcan0 37C#FD00FD00097F0029
(1649770144.317615) vcan0 244#00000001DD
(1649770144.317827) vcan0 143#6B6B00C2
(1649770144.320171) vcan0 095#800007F400000035
(1649770144.320204) vcan0 1A4#0000000800000001
(1649770144.320210) vcan0 1AA#7FFF000000006702
(1649770144.321457) vcan0 1B0#000F0000000148
(1649770144.321489) vcan0 1D0#000000000000000A
(1649770144.322648) vcan0 166#D0320009
(1649770144.323846) vcan0 158#000000000000000A
(1649770144.323881) vcan0 161#000005500108000D
(1649770144.323887) vcan0 191#010010A1410038
(1649770144.325015) vcan0 18E#00005C
(1649770144.325047) vcan0 133#0000000098
(1649770144.325053) vcan0 136#000200000000001B
(1649770144.325070) vcan0 13A#0000000000000019
(1649770144.325076) vcan0 13F#000000050000001F
(1649770144.326386) vcan0 164#0000C01AA8000031
(1649770144.326426) vcan0 17C#0000000010000012
(1649770144.327542) vcan0 183#0000000900001011
(1649770144.327582) vcan0 143#6B6B00D1
(1649770144.330113) vcan0 095#800007F400000008
(1649770144.332865) vcan0 166#D0320018
(1649770144.333162) vcan0 244#00000001AF
(1649770144.334117) vcan0 158#0000000000000019
(1649770144.334158) vcan0 161#000005500108001C
(1649770144.334165) vcan0 039#002A
(1649770144.334172) vcan0 164#0000C01AA8000004
(1649770144.334179) vcan0 191#010010A141000B
(1649770144.335467) vcan0 133#00000000A7
(1649770144.335505) vcan0 136#000200000000002A
(1649770144.335511) vcan0 13A#0000000000000028
(1649770144.335516) vcan0 13F#000000050000002E
(1649770144.335521) vcan0 17C#0000000010000021
(1649770144.335526) vcan0 18E#00006B
(1649770144.336797) vcan0 1CF#80050000003C
(1649770144.336843) vcan0 1DC#02000039
(1649770144.336850) vcan0 183#0000000E0000102B
(1649770144.338059) vcan0 143#6B6B00E0
(1649770144.339303) vcan0 095#800007F400000017
(1649770144.340429) vcan0 1A4#0000000800000010
(1649770144.340455) vcan0 1AA#7FFF000000006810
(1649770144.340463) vcan0 1B0#000F0000000157
(1649770144.341746) vcan0 1D0#000000000000000A
(1649770144.342901) vcan0 166#D0320027
(1649770144.343505) vcan0 244#00000001AF
(1649770144.344040) vcan0 158#0000000000000028
(1649770144.344064) vcan0 161#000005500108002B
(1649770144.344070) vcan0 191#010010A141001A
(1649770144.344075) vcan0 164#0000C01AA8000013
(1649770144.345216) vcan0 133#00000000B6
(1649770144.345256) vcan0 136#0002000000000039
(1649770144.345263) vcan0 13A#0000000000000037
(1649770144.345267) vcan0 13F#000000050000003D
(1649770144.345273) vcan0 17C#0000000010000030
(1649770144.345277) vcan0 18E#00007A
(1649770144.346441) vcan0 294#040B0002CF5A000E
(1649770144.346484) vcan0 21E#03E83745220601
(1649770144.346491) vcan0 309#00000000000000B1
(1649770144.347638) vcan0 183#0000000A0000103E
(1649770144.347680) vcan0 039#0039
(1649770144.347686) vcan0 143#6B6B00FF
(1649770144.349934) vcan0 095#800007F400000026
(1649770144.352268) vcan0 166#D0320036
(1649770144.353521) vcan0 158#0000000000000037
(1649770144.353614) vcan0 161#000005500108003A
(1649770144.354899) vcan0 191#010010A1410029
(1649770144.354948) vcan0 164#0000C01AA8000022
(1649770144.354955) vcan0 133#0000000089
(1649770144.354960) vcan0 136#000200000000000C
(1649770144.354965) vcan0 13A#000000000000000A
(1649770144.354970) vcan0 13F#0000000500000000
(1649770144.356164) vcan0 17C#0000000010000003
(1649770144.356220) vcan0 18E#00004D
(1649770144.356226) vcan0 1CF#80050000000F
(1649770144.356232) vcan0 1DC#0200000C
(1649770144.356237) vcan0 183#0000000700001004
(1649770144.358665) vcan0 143#6B6B00C2
(1649770144.359046) vcan0 244#000000012D
(1649770144.359903) vcan0 095#800007F400000035
(1649770144.361099) vcan0 1A4#000000080000002F
(1649770144.361157) vcan0 1AA#7FFF00000000682F
(1649770144.361164) vcan0 1B0#000F0000000166
(1649770144.361169) vcan0 039#000C
(1649770144.361174) vcan0 1D0#000000000000000A
(1649770144.362366) vcan0 166#D0320009
(1649770144.363476) vcan0 158#000000000000000A
(1649770144.363520) vcan0 161#000005500108000D
(1649770144.364760) vcan0 191#010010A1410038
(1649770144.364802) vcan0 18E#00005C
(1649770144.364808) vcan0 133#0000000098
(1649770144.364813) vcan0 136#000200000000001B
(1649770144.364819) vcan0 13A#0000000000000019
(1649770144.366007) vcan0 13F#000000050000001F
(1649770144.366050) vcan0 164#0000C01AA8000031
(1649770144.366056) vcan0 17C#0000000010000012
(1649770144.367233) vcan0 183#0000000D0000101D
(1649770144.368470) vcan0 143#6B6B00D1
(1649770144.369486) vcan0 244#0000000175
(1649770144.369757) vcan0 095#800007F400000008
(1649770144.372147) vcan0 166#D0320018
(1649770144.373382) vcan0 158#0000000000000019
(1649770144.373432) vcan0 161#000005500108001C
(1649770144.374594) vcan0 191#010010A141000B
(1649770144.374636) vcan0 164#0000C01AA8000004
(1649770144.374642) vcan0 133#00000000A7
(1649770144.374646) vcan0 136#000200000000002A
(1649770144.374651) vcan0 13A#0000000000000028
(1649770144.375819) vcan0 13F#000000050000002E
(1649770144.375868) vcan0 17C#0000000010000021
(1649770144.375875) vcan0 18E#00006B
(1649770144.375880) vcan0 1CF#80050000001E
(1649770144.375885) vcan0 1DC#0200001B
(1649770144.377214) vcan0 183#0000000900001020
(1649770144.377285) vcan0 039#001B
(1649770144.378577) vcan0 143#6B6B00E0
(1649770144.379828) vcan0 095#800007F400000017
(1649770144.381188) vcan0 1A4#000000080000003E
(1649770144.381253) vcan0 1AA#7FFF00000000673F
(1649770144.381261) vcan0 1B0#000F0000000175
(1649770144.381267) vcan0 1D0#000000000000000A
(1649770144.382602) vcan0 166#D0320027
(1649770144.383822) vcan0 158#0000000000000028
(1649770144.383878) vcan0 161#000005500108002B
(1649770144.383886) vcan0 191#010010A141001A
(1649770144.385165) vcan0 164#0000C01AA8000013
(1649770144.385208) vcan0 133#00000000B6
(1649770144.385216) vcan0 136#0002000000000039
(1649770144.385222) vcan0 13A#0000000000000037
(1649770144.385221) vcan0 244#0000000131
(1649770144.385228) vcan0 13F#000000050000003D
(1649770144.385235) vcan0 17C#0000000010000030
(1649770144.386390) vcan0 18E#00007A
(1649770144.386427) vcan0 294#040B0002CF5A001D
(1649770144.386435) vcan0 21E#03E83745220610
(1649770144.387533) vcan0 183#0000000600001032
(1649770144.387592) vcan0 143#6B6B00FF
(1649770144.389934) vcan0 095#800007F400000026
(1649770144.392406) vcan0 166#D0320036
(1649770144.393757) vcan0 158#0000000000000037
(1649770144.393816) vcan0 161#000005500108003A
(1649770144.393825) vcan0 191#010010A1410029
(1649770144.395118) vcan0 164#0000C01AA8000022
(1649770144.395176) vcan0 133#0000000089
(1649770144.395185) vcan0 136#000200000000000C
(1649770144.395191) vcan0 13A#000000000000000A
(1649770144.395198) vcan0 13F#0000000500000000
(1649770144.395204) vcan0 17C#0000000010000003
(1649770144.395210) vcan0 18E#00004D
(1649770144.395566) vcan0 244#00000001AD
(1649770144.396689) vcan0 1CF#80050000002D
(1649770144.396704) vcan0 1DC#0200002A
(1649770144.396712) vcan0 183#0000000C0000100F
(1649770144.396718) vcan0 039#002A
(1649770144.397959) vcan0 143#6B6B00C2
(1649770144.398041) vcan0 333#0000000000003C
(1649770144.399272) vcan0 095#800007F400000035
(1649770144.400580) vcan0 1A4#0000000800000001
(1649770144.400645) vcan0 1AA#7FFF000000006702
(1649770144.400652) vcan0 1B0#000F0000000148
(1649770144.401942) vcan0 1D0#000000000000000A
(1649770144.402003) vcan0 166#D0320009
(1649770144.403278) vcan0 158#000000000000000A
(1649770144.404590) vcan0 161#000005500108000D
(1649770144.404665) vcan0 191#010010A1410038
(1649770144.404671) vcan0 18E#00005C
(1649770144.404676) vcan0 133#0000000098
(1649770144.404683) vcan0 136#000200000000001B
(1649770144.404687) vcan0 13A#0000000000000019
(1649770144.405963) vcan0 13F#000000050000001F
(1649770144.406016) vcan0 164#0000C01AA8000031
(1649770144.406022) vcan0 17C#0000000010000012
(1649770144.407196) vcan0 183#0000000900001011
(1649770144.408368) vcan0 143#6B6B00D1
(1649770144.409673) vcan0 305#8008
(1649770144.409725) vcan0 095#800007F400000008
(1649770144.411170) vcan0 244#00000001ED
(1649770144.412194) vcan0 166#D0320018
(1649770144.413442) vcan0 158#0000000000000019
(1649770144.413487) vcan0 161#000005500108001C
(1649770144.414685) vcan0 191#010090A1410003
(1649770144.414732) vcan0 164#0000C01AA8000004
(1649770144.414740) vcan0 133#00000000A7
(1649770144.414746) vcan0 136#000200000000002A
(1649770144.414752) vcan0 13A#0000000000000028
(1649770144.415957) vcan0 13F#000000050000002E
(1649770144.416008) vcan0 17C#0000000010000021
(1649770144.416015) vcan0 18E#00006B
(1649770144.416022) vcan0 1CF#80050000003C
(1649770144.416028) vcan0 1DC#02000039
(1649770144.416033) vcan0 320#000030
(1649770144.416040) vcan0 324#7465000000000E38
(1649770144.417279) vcan0 183#0000000E0000102B
(1649770144.417328) vcan0 37C#FD00FD00097F0038
(1649770144.417335) vcan0 039#0039
(1649770144.418585) vcan0 143#6B6B00E0
(1649770144.419877) vcan0 095#800007F400000017
(1649770144.421256) vcan0 1A4#0000000800000010
(1649770144.421356) vcan0 1AA#7FFF000000006810
(1649770144.421366) vcan0 1B0#000F0000000157
(1649770144.421377) vcan0 1D0#000000000000000A
(1649770144.421645) vcan0 244#0000000127
(1649770144.423021) vcan0 166#D0320027
(1649770144.424244) vcan0 158#0000000000000028
(1649770144.424286) vcan0 161#000005500108002B
(1649770144.424292) vcan0 191#010090A1410012
(1649770144.424297) vcan0 133#00000000B6
(1649770144.424301) vcan0 136#0002000000000039
(1649770144.425474) vcan0 13A#0000000000000037
(1649770144.425517) vcan0 13F#000000050000003D
(1649770144.425524) vcan0 164#0000C01AA8000013
(1649770144.425528) vcan0 17C#0000000010000030
(1649770144.425533) vcan0 18E#00007A
(1649770144.426712) vcan0 294#040B0002CF5A002C
(1649770144.426754) vcan0 21E#03E8374522062F
(1649770144.426767) vcan0 183#0000000A0000103E
(1649770144.428005) vcan0 143#6B6B00FF
(1649770144.430384) vcan0 095#800007F400000026
(1649770144.430427) vcan0 039#000C
(1649770144.432711) vcan0 166#D0320036
(1649770144.433976) vcan0 158#0000000000000037
(1649770144.434031) vcan0 161#000005500108003A
(1649770144.434037) vcan0 191#010090A1410021
(1649770144.434042) vcan0 164#0000C01AA8000022
(1649770144.435175) vcan0 133#0000000089
(1649770144.435221) vcan0 136#000200000000000C
(1649770144.435227) vcan0 13A#000000000000000A
(1649770144.435232) vcan0 13F#0000000500000000
(1649770144.435237) vcan0 17C#0000000010000003
(1649770144.435241) vcan0 18E#00004D
(1649770144.436381) vcan0 1CF#80050000000F
(1649770144.436434) vcan0 1DC#0200000C
(1649770144.436440) vcan0 183#0000000F0000100C
(1649770144.437422) vcan0 244#000000017C
(1649770144.437627) vcan0 143#6B6B00C2
(1649770144.439984) vcan0 095#800007F400000035
(1649770144.440046) vcan0 1A4#000000080000002F
(1649770144.441217) vcan0 1AA#7FFF00000000682F
(1649770144.441261) vcan0 1B0#000F0000000166
(1649770144.441267) vcan0 1D0#000000000000000A
(1649770144.442539) vcan0 166#D0320009
(1649770144.443729) vcan0 158#000000000000000A
(1649770144.443773) vcan0 161#000005500108000D
(1649770144.443779) vcan0 191#010090A1410030
(1649770144.445071) vcan0 18E#00005C
(1649770144.445126) vcan0 133#0000000098
(1649770144.445134) vcan0 136#000200000000001B
(1649770144.445141) vcan0 13A#0000000000000019
(1649770144.445146) vcan0 13F#000000050000001F
(1649770144.445152) vcan0 164#0000C01AA8000031
(1649770144.446438) vcan0 17C#0000000010000012
(1649770144.446492) vcan0 039#001B
(1649770144.446500) vcan0 309#0000000000000084
(1649770144.447659) vcan0 183#0000000B0000101F
(1649770144.447714) vcan0 143#6B6B00D1
(1649770144.450313) vcan0 095#800007F400000008
(1649770144.452900) vcan0 166#D0320018
(1649770144.453140) vcan0 244#0000000195
(1649770144.454397) vcan0 158#0000000000000019
(1649770144.454519) vcan0 161#000005500108001C
(1649770144.454528) vcan0 191#010090A1410003
(1649770144.454534) vcan0 164#0000C01AA8000004
(1649770144.454540) vcan0 133#00000000A7
(1649770144.454558) vcan0 136#000200000000002A
(1649770144.455747) vcan0 13A#0000000000000028
(1649770144.455819) vcan0 13F#000000050000002E
(1649770144.455825) vcan0 17C#0000000010000021
(1649770144.455830) vcan0 18E#00006B
(1649770144.455834) vcan0 1CF#80050000001E
(1649770144.455839) vcan0 1DC#0200001B
(1649770144.457113) vcan0 183#0000000800001021
(1649770144.458370) vcan0 143#6B6B00E0
(1649770144.459569) vcan0 095#800007F400000017
(1649770144.459619) vcan0 039#002A
(1649770144.460932) vcan0 1A4#000000080000003E
(1649770144.460986) vcan0 1AA#7FFF00000000673F
(1649770144.460995) vcan0 1B0#000F0000000175
(1649770144.461001) vcan0 1D0#000000000000000A
(1649770144.462293) vcan0 166#D0320027
(1649770144.463513) vcan0 158#0000000000000028
(1649770144.463567) vcan0 161#000005500108002B
(1649770144.463677) vcan0 244#000000012C
(1649770144.464913) vcan0 191#010090A1410012
(1649770144.464929) vcan0 133#00000000B6
(1649770144.464935) vcan0 136#0002000000000039
(1649770144.465044) vcan0 13A#0000000000000037
(1649770144.465051) vcan0 13F#000000050000003D
(1649770144.465056) vcan0 164#0000C01AA8000013
(1649770144.466276) vcan0 17C#0000000010000030
(1649770144.466307) vcan0 18E#00007A
(1649770144.466314) vcan0 294#040B0002CF5A003B
(1649770144.466318) vcan0 21E#03E8374522063E
(1649770144.467449) vcan0 183#0000000600001032
(1649770144.467484) vcan0 143#6B6B00FF
(1649770144.469950) vcan0 095#800007F400000026
(1649770144.472584) vcan0 166#D0320036
(1649770144.473882) vcan0 158#0000000000000037
(1649770144.473931) vcan0 161#000005500108003A
(1649770144.473937) vcan0 039#0039
(1649770144.473942) vcan0 191#010090A1410021
(1649770144.474084) vcan0 188#00000000
(1649770144.475047) vcan0 164#0000C01AA8000022
(1649770144.475085) vcan0 133#0000000089
(1649770144.475092) vcan0 136#000200000000000C
(1649770144.475097) vcan0 13A#000000000000000A
(1649770144.475101) vcan0 13F#0000000500000000
(1649770144.476340) vcan0 17C#0000000010000003
(1649770144.476371) vcan0 18E#00004D
(1649770144.476377) vcan0 1CF#80050000002D
(1649770144.476382) vcan0 1DC#0200002A
(1649770144.476386) vcan0 183#0000000400001007
(1649770144.477620) vcan0 143#6B6B00C2
(1649770144.479337) vcan0 244#0000000155
(1649770144.480573) vcan0 095#800007F400000035
(1649770144.480592) vcan0 1A4#0000000800000001
(1649770144.480599) vcan0 1AA#7FFF000000006702
(1649770144.480605) vcan0 1B0#000F0000000148
(1649770144.481762) vcan0 1D0#000000000000000A
(1649770144.483072) vcan0 166#D0320009
(1649770144.484350) vcan0 158#000000000000000A
(1649770144.484393) vcan0 161#000005500108000D
(1649770144.484400) vcan0 191#010090A1410030
(1649770144.484407) vcan0 164#0000C01AA8000031
(1649770144.484413) vcan0 133#0000000098
(1649770144.485680) vcan0 136#000200000000001B
(1649770144.485699) vcan0 13A#0000000000000019
(1649770144.485706) vcan0 13F#000000050000001F
(1649770144.485712) vcan0 17C#0000000010000012
(1649770144.485718) vcan0 18E#00005C
(1649770144.486996) vcan0 183#0000000300001017
(1649770144.488211) vcan0 143#6B6B00D1
(1649770144.489373) vcan0 039#000C
(1649770144.489426) vcan0 095#800007F400000008
(1649770144.492997) vcan0 166#D0320018
(1649770144.494268) vcan0 158#0000000000000019
(1649770144.494322) vcan0 161#000005500108001C
(1649770144.494330) vcan0 191#010090A1410003
(1649770144.494337) vcan0 164#0000C01AA8000004
(1649770144.494343) vcan0 133#00000000A7
(1649770144.495196) vcan0 244#000000015A
(1649770144.495470) vcan0 136#000200000000002A
(1649770144.495490) vcan0 13A#0000000000000028
(1649770144.495497) vcan0 13F#000000050000002E
(1649770144.495502) vcan0 17C#0000000010000021
(1649770144.495508) vcan0 18E#00006B
(1649770144.496817) vcan0 1CF#80050000003C
(1649770144.496868) vcan0 1DC#02000039
(1649770144.496874) vcan0 183#0000000A0000102F
(1649770144.498068) vcan0 143#6B6B00E0
(1649770144.498126) vcan0 333#0000000000000F
(1649770144.499293) vcan0 095#800007F400000017
(1649770144.500578) vcan0 1A4#0000000800000010
(1649770144.500617) vcan0 1AA#7FFF000000006810
(1649770144.500623) vcan0 1B0#000F0000000157
(1649770144.501834) vcan0 1D0#000000000000000A
(1649770144.503090) vcan0 166#D0320027
(1649770144.504342) vcan0 158#0000000000000028
(1649770144.504384) vcan0 161#000005500108002B
(1649770144.504390) vcan0 191#010090A1410012
(1649770144.504395) vcan0 133#00000000B6
(1649770144.504400) vcan0 136#0002000000000039
(1649770144.505546) vcan0 13A#0000000000000037
(1649770144.505594) vcan0 13F#000000050000003D
(1649770144.505600) vcan0 164#0000C01AA8000013
(1649770144.505605) vcan0 17C#0000000010000030
(1649770144.505610) vcan0 18E#00007A
(1649770144.505660) vcan0 244#000000010E
(1649770144.506714) vcan0 294#040B0002CF5A000E
(1649770144.506741) vcan0 21E#03E83745220601
(1649770144.506747) vcan0 039#001B
(1649770144.506752) vcan0 183#0000000700001031
(1649770144.507950) vcan0 143#6B6B00FF
(1649770144.510356) vcan0 095#800007F400000026
(1649770144.512678) vcan0 166#D0320036
(1649770144.512722) vcan0 305#8017
(1649770144.513896) vcan0 158#0000000000000037
(1649770144.513949) vcan0 161#000005500108003A
(1649770144.513955) vcan0 191#010090A1410021
(1649770144.515108) vcan0 164#0000C01AA8000022
(1649770144.515160) vcan0 133#0000000089
(1649770144.515167) vcan0 136#000200000000000C
(1649770144.515172) vcan0 13A#000000000000000A
(1649770144.515176) vcan0 13F#0000000500000000
(1649770144.515181) vcan0 17C#0000000010000003
(1649770144.516335) vcan0 18E#00004D
(1649770144.516386) vcan0 1CF#80050000000F
(1649770144.516393) vcan0 1DC#0200000C
(1649770144.516398) vcan0 320#000003
(1649770144.516402) vcan0 324#7465000000000E0B
(1649770144.516407) vcan0 183#0000000D0000100E
(1649770144.517596) vcan0 37C#FD00FD00097F000B
(1649770144.517651) vcan0 40C#033133383439000D
(1649770144.517659) vcan0 454#23EF09
(1649770144.517664) vcan0 143#6B6B00C2
(1649770144.520265) vcan0 095#800007F400000035
(1649770144.520336) vcan0 1A4#000000080000002F
(1649770144.520345) vcan0 1AA#7FFF00000000682F
(1649770144.521608) vcan0 244#00000001AB
(1649770144.521629) vcan0 1B0#000F0000000166
(1649770144.521661) vcan0 039#002A
(1649770144.521669) vcan0 1D0#000000000000000A
(1649770144.522844) vcan0 166#D0320009
(1649770144.524060) vcan0 158#000000000000000A
(1649770144.524133) vcan0 161#000005500108000D
(1649770144.524142) vcan0 191#010090A1410030
(1649770144.524147) vcan0 18E#00005C
(1649770144.524152) vcan0 133#0000000098
(1649770144.525391) vcan0 136#000200000000001B
(1649770144.525448) vcan0 13A#0000000000000019
(1649770144.525455) vcan0 13F#000000050000001F
(1649770144.525460) vcan0 164#0000C01AA8000031
(1649770144.525464) vcan0 17C#0000000010000012
(1649770144.526808) vcan0 183#0000000900001011
(1649770144.528115) vcan0 143#6B6B00D1
(1649770144.529518) vcan0 095#800007F400000008
(1649770144.532152) vcan0 166#D0320018
(1649770144.533580) vcan0 158#0000000000000019
(1649770144.533651) vcan0 161#000005500108001C
(1649770144.533659) vcan0 191#010090A1410003
(1649770144.535033) vcan0 164#0000C01AA8000004
(1649770144.535103) vcan0 133#00000000A7
(1649770144.535111) vcan0 039#0039
(1649770144.535118) vcan0 136#000200000000002A
(1649770144.535124) vcan0 13A#0000000000000028
(1649770144.535130) vcan0 13F#000000050000002E
(1649770144.536437) vcan0 17C#0000000010000021
(1649770144.536507) vcan0 18E#00006B
(1649770144.536516) vcan0 1CF#80050000001E
(1649770144.536522) vcan0 1DC#0200001B
(1649770144.536528) vcan0 183#0000000600001023
(1649770144.537412) vcan0 244#0000000130
(1649770144.537699) vcan0 143#6B6B00E0
(1649770144.540045) vcan0 095#800007F400000017
(1649770144.540091) vcan0 1A4#000000080000003E
(1649770144.541366) vcan0 1AA#7FFF00000000673F
(1649770144.541412) vcan0 1B0#000F0000000175
(1649770144.541418) vcan0 1D0#000000000000000A
(1649770144.542738) vcan0 166#D0320027
(1649770144.543987) vcan0 158#0000000000000028
(1649770144.544044) vcan0 161#000005500108002B
(1649770144.544053) vcan0 191#010090A1410012
(1649770144.544059) vcan0 164#0000C01AA8000013
(1649770144.545350) vcan0 133#00000000B6
(1649770144.545404) vcan0 136#0002000000000039
(1649770144.545412) vcan0 13A#0000000000000037
(1649770144.545418) vcan0 13F#000000050000003D
(1649770144.545424) vcan0 17C#0000000010000030
(1649770144.545430) vcan0 18E#00007A
(1649770144.546801) vcan0 294#040B0002CF5A001D
(1649770144.546857) vcan0 21E#03E83745220610
(1649770144.546866) vcan0 309#0000000000000093
(1649770144.546872) vcan0 428#01040000521C10
(1649770144.546878) vcan0 405#000004000000001A
(1649770144.546884) vcan0 183#0000000C0000103C
(1649770144.548062) vcan0 143#6B6B00FF
(1649770144.549488) vcan0 095#800007F400000026
(1649770144.550893) vcan0 039#000C
(1649770144.552239) vcan0 166#D0320036
(1649770144.553432) vcan0 244#00000001F1
(1649770144.553477) vcan0 158#0000000000000037
(1649770144.553496) vcan0 161#000005500108003A
(1649770144.554787) vcan0 191#010090A1410021
(1649770144.554828) vcan0 164#0000C01AA8000022
(1649770144.554836) vcan0 133#0000000089
(1649770144.554842) vcan0 136#000200000000000C
(1649770144.554848) vcan0 13A#000000000000000A
(1649770144.554854) vcan0 13F#0000000500000000
(1649770144.556007) vcan0 17C#0000000010000003
(1649770144.556048) vcan0 18E#00004D
(1649770144.556055) vcan0 1CF#80050000002D
(1649770144.556060) vcan0 1DC#0200002A
(1649770144.557323) vcan0 183#0000000900001002
(1649770144.558739) vcan0 143#6B6B00C2
(1649770144.559978) vcan0 095#800007F400000035
(1649770144.560033) vcan0 1A4#0000000800000001
(1649770144.561394) vcan0 1AA#7FFF000000006702
(1649770144.561472) vcan0 1B0#000F0000000148
(1649770144.561481) vcan0 1D0#000000000000000A
(1649770144.562842) vcan0 166#D0320009
(1649770144.564084) vcan0 158#000000000000000A
(1649770144.564143) vcan0 161#000005500108000D
(1649770144.564152) vcan0 039#001B
(1649770144.564158) vcan0 191#010090A1410030
(1649770144.564164) vcan0 164#0000C01AA8000031
(1649770144.565504) vcan0 133#0000000098
(1649770144.565560) vcan0 136#000200000000001B
(1649770144.565569) vcan0 13A#0000000000000019
(1649770144.565575) vcan0 13F#000000050000001F
(1649770144.565581) vcan0 17C#0000000010000012
(1649770144.565587) vcan0 18E#00005C
(1649770144.566937) vcan0 183#0000000600001014
(1649770144.568295) vcan0 143#6B6B00D1
(1649770144.569366) vcan0 244#0000000126
(1649770144.569562) vcan0 095#800007F400000008
(1649770144.571968) vcan0 166#D0320018
(1649770144.573208) vcan0 158#0000000000000019
(1649770144.574551) vcan0 161#000005500108001C
(1649770144.574596) vcan0 191#010090A1410003
(1649770144.574604) vcan0 164#0000C01AA8000004
(1649770144.574610) vcan0 133#00000000A7
(1649770144.574616) vcan0 136#000200000000002A
(1649770144.574622) vcan0 13A#0000000000000028
(1649770144.575773) vcan0 13F#000000050000002E
(1649770144.575817) vcan0 17C#0000000010000021
(1649770144.575824) vcan0 18E#00006B
(1649770144.575831) vcan0 1CF#80050000003C
(1649770144.575837) vcan0 1DC#02000039
(1649770144.577117) vcan0 183#0000000400001025
(1649770144.578491) vcan0 143#6B6B00E0
(1649770144.578534) vcan0 039#002A
(1649770144.579708) vcan0 095#800007F400000017
(1649770144.580964) vcan0 1A4#0000000800000010
(1649770144.581008) vcan0 1AA#7FFF000000006810
(1649770144.581016) vcan0 1B0#000F0000000157
(1649770144.581022) vcan0 1D0#000000000000000A
(1649770144.582375) vcan0 166#D0320027
(1649770144.583543) vcan0 158#0000000000000028
(1649770144.583599) vcan0 161#000005500108002B
(1649770144.584949) vcan0 191#010090A1410012
(1649770144.585006) vcan0 164#0000C01AA8000013
(1649770144.585014) vcan0 133#00000000B6
(1649770144.585020) vcan0 136#0002000000000039
(1649770144.585026) vcan0 13A#0000000000000037
(1649770144.585032) vcan0 13F#000000050000003D
(1649770144.585055) vcan0 244#000000012C
(1649770144.586320) vcan0 17C#0000000010000030
(1649770144.586339) vcan0 18E#00007A
(1649770144.586346) vcan0 294#040B0002CF5A002C
(1649770144.586353) vcan0 21E#03E8374522062F
(1649770144.587527) vcan0 183#0000000300001035
(1649770144.587558) vcan0 143#6B6B00FF
(1649770144.590048) vcan0 095#800007F400000026
(1649770144.592401) vcan0 166#D0320036
(1649770144.592459) vcan0 039#0039
(1649770144.593805) vcan0 158#0000000000000037
(1649770144.593858) vcan0 161#000005500108003A
(1649770144.593866) vcan0 191#010090A1410021
(1649770144.595190) vcan0 164#0000C01AA8000022
(1649770144.595248) vcan0 133#0000000089
(1649770144.595256) vcan0 136#000200000000000C
(1649770144.595262) vcan0 13A#000000000000000A
(1649770144.595269) vcan0 13F#0000000500000000
(1649770144.595275) vcan0 17C#0000000010000003
(1649770144.595282) vcan0 18E#00004D
(1649770144.595552) vcan0 244#0000000168
(1649770144.596911) vcan0 1CF#80050000000F
(1649770144.596986) vcan0 1DC#0200000C
(1649770144.596994) vcan0 183#0000000A00001001
(1649770144.598171) vcan0 143#6B6B00C2
(1649770144.598216) vcan0 333#0000000000001E
(1649770144.599334) vcan0 095#800007F400000035
(1649770144.600506) vcan0 1A4#000000080000002F
(1649770144.600551) vcan0 1AA#7FFF00000000682F
(1649770144.600557) vcan0 1B0#000F0000000166
(1649770144.601767) vcan0 1D0#000000000000000A
(1649770144.602992) vcan0 166#D0320009
(1649770144.604328) vcan0 158#000000000000000A
(1649770144.604353) vcan0 161#000005500108000D
(1649770144.604368) vcan0 191#010090A1410030
(1649770144.604373) vcan0 133#0000000098
(1649770144.604377) vcan0 136#000200000000001B
(1649770144.605593) vcan0 13A#0000000000000019
(1649770144.605611) vcan0 13F#000000050000001F
(1649770144.605617) vcan0 164#0000C01AA8000031
(1649770144.605621) vcan0 17C#0000000010000012
(1649770144.605626) vcan0 18E#00005C
(1649770144.606744) vcan0 183#0000000700001013
(1649770144.606776) vcan0 039#000C
(1649770144.607964) vcan0 143#6B6B00D1
(1649770144.609292) vcan0 095#800007F400000008
(1649770144.611271) vcan0 244#00000001AB
(1649770144.612988) vcan0 166#D0320018
(1649770144.614326) vcan0 158#0000000000000019
(1649770144.614371) vcan0 161#000005500108001C
(1649770144.614379) vcan0 191#010090A1410003
(1649770144.614385) vcan0 164#0000C01AA8000004
(1649770144.614391) vcan0 133#00000000A7
(1649770144.614397) vcan0 136#000200000000002A
(1649770144.615584) vcan0 13A#0000000000000028
(1649770144.615637) vcan0 13F#000000050000002E
(1649770144.615646) vcan0 17C#0000000010000021
(1649770144.615652) vcan0 18E#00006B
(1649770144.615658) vcan0 1CF#80050000001E
(1649770144.615664) vcan0 1DC#0200001B
(1649770144.616853) vcan0 320#000012
(1649770144.616918) vcan0 324#7465000000000E1A
(1649770144.616927) vcan0 183#0000000500001024
(1649770144.616933) vcan0 37C#FD00FD00097F001A
(1649770144.618112) vcan0 143#6B6B00E0
(1649770144.619362) vcan0 305#8026
(1649770144.619408) vcan0 095#800007F400000017
(1649770144.620698) vcan0 1A4#000000080000003E
(1649770144.620793) vcan0 1AA#7FFF00000000673F
(1649770144.620838) vcan0 1B0#000F0000000175
(1649770144.620846) vcan0 1D0#000000000000000A
(1649770144.622044) vcan0 166#D0320027
(1649770144.623410) vcan0 158#0000000000000028
(1649770144.623469) vcan0 161#000005500108002B
(1649770144.624830) vcan0 191#010090A1410012
(1649770144.624898) vcan0 18E#00007A
(1649770144.624907) vcan0 133#00000000B6
(1649770144.624914) vcan0 136#0002000000000039
(1649770144.624920) vcan0 13A#0000000000000037
(1649770144.624926) vcan0 13F#000000050000003D
(1649770144.626270) vcan0 164#0000C01AA8000013
(1649770144.626341) vcan0 17C#0000000010000030
(1649770144.626350) vcan0 294#040B0002CF5A003B
(1649770144.626356) vcan0 21E#03E8374522063E
(1649770144.627269) vcan0 244#00000001FD
(1649770144.627450) vcan0 039#001B
(1649770144.627464) vcan0 183#0000000B0000103D
(1649770144.627472) vcan0 143#6B6B00FF
(1649770144.629889) vcan0 095#800007F400000026
(1649770144.632408) vcan0 166#D0320036
(1649770144.633694) vcan0 158#0000000000000037
(1649770144.633746) vcan0 161#000005500108003A
(1649770144.633753) vcan0 191#010090A1410021
(1649770144.635088) vcan0 164#0000C01AA8000022
(1649770144.635141) vcan0 133#0000000089
(1649770144.635147) vcan0 136#000200000000000C
(1649770144.635152) vcan0 13A#000000000000000A
(1649770144.635157) vcan0 13F#0000000500000000
(1649770144.635161) vcan0 17C#0000000010000003
(1649770144.636439) vcan0 18E#00004D
(1649770144.636492) vcan0 1CF#80050000002D
(1649770144.636499) vcan0 1DC#0200002A
(1649770144.636504) vcan0 183#0000000800001003
(1649770144.637815) vcan0 143#6B6B00C2
(1649770144.640221) vcan0 095#800007F400000035
(1649770144.640259) vcan0 1A4#0000000800000001
(1649770144.640265) vcan0 1AA#7FFF000000006702
(1649770144.641474) vcan0 1B0#000F0000000148
(1649770144.641510) vcan0 039#002A
(1649770144.641516) vcan0 1D0#000000000000000A
(1649770144.642816) vcan0 166#D0320009
(1649770144.642936) vcan0 244#00000001B7
(1649770144.644222) vcan0 158#000000000000000A
(1649770144.644263) vcan0 161#000005500108000D
(1649770144.644271) vcan0 191#010090A1410030
(1649770144.644277) vcan0 164#0000C01AA8000031
(1649770144.644283) vcan0 133#0000000098
(1649770144.645490) vcan0 136#000200000000001B
(1649770144.645534) vcan0 13A#0000000000000019
(1649770144.645542) vcan0 13F#000000050000001F
(1649770144.645548) vcan0 17C#0000000010000012
(1649770144.645554) vcan0 18E#00005C
(1649770144.645560) vcan0 309#00000000000000A2
(1649770144.646835) vcan0 183#0000000D0000101D
(1649770144.648146) vcan0 143#6B6B00D1
(1649770144.649447) vcan0 095#800007F400000008
(1649770144.651986) vcan0 166#D0320018
(1649770144.653358) vcan0 244#0000000152
(1649770144.653409) vcan0 158#0000000000000019
(1649770144.654686) vcan0 161#000005500108001C
(1649770144.654719) vcan0 191#010090A1410003
(1649770144.654727) vcan0 164#0000C01AA8000004
(1649770144.654733) vcan0 133#00000000A7
(1649770144.654748) vcan0 136#000200000000002A
(1649770144.654754) vcan0 13A#0000000000000028
(1649770144.655944) vcan0 13F#000000050000002E
(1649770144.655977) vcan0 17C#0000000010000021
(1649770144.655983) vcan0 18E#00006B
(1649770144.655987) vcan0 1CF#80050000003C
(1649770144.655992) vcan0 1DC#02000039
(1649770144.657185) vcan0 183#0000000900001020
(1649770144.657218) vcan0 039#0039
(1649770144.658447) vcan0 143#6B6B00E0
(1649770144.659775) vcan0 095#800007F400000017
(1649770144.661079) vcan0 1A4#0000000800000010
(1649770144.661116) vcan0 1AA#7FFF000000006810
(1649770144.661122) vcan0 1B0#000F0000000157
(1649770144.661127) vcan0 1D0#000000000000000A
(1649770144.662458) vcan0 166#D0320027
(1649770144.663717) vcan0 158#0000000000000028
(1649770144.663769) vcan0 161#000005500108002B
(1649770144.663777) vcan0 191#010090A1410012
(1649770144.665095) vcan0 164#0000C01AA8000013
(1649770144.665145) vcan0 133#00000000B6
(1649770144.665153) vcan0 136#0002000000000039
(1649770144.665159) vcan0 13A#0000000000000037
(1649770144.665165) vcan0 13F#000000050000003D
(1649770144.666477) vcan0 17C#0000000010000030
(1649770144.666528) vcan0 18E#00007A
(1649770144.666535) vcan0 294#040B0002CF5A000E
(1649770144.666542) vcan0 21E#03E83745220601
(1649770144.667708) vcan0 183#0000000600001032
(1649770144.667754) vcan0 143#6B6B00FF
(1649770144.669059) vcan0 244#00000001DA
(1649770144.669223) vcan0 095#800007F400000026
(1649770144.670641) vcan0 5A1#9600000000006210
(1649770144.670660) vcan0 039#000C
(1649770144.673074) vcan0 166#D0320036
(1649770144.674288) vcan0 158#0000000000000037
(1649770144.674305) vcan0 161#000005500108003A
(1649770144.674311) vcan0 191#010090A1410021
(1649770144.674316) vcan0 164#0000C01AA8000022
(1649770144.674321) vcan0 133#0000000089
(1649770144.674326) vcan0 136#000200000000000C
(1649770144.675491) vcan0 13A#000000000000000A
(1649770144.675523) vcan0 13F#0000000500000000
(1649770144.675557) vcan0 17C#0000000010000003
(1649770144.675564) vcan0 18E#00004D
(1649770144.675588) vcan0 1CF#80050000000F
(1649770144.675593) vcan0 1DC#0200000C
(1649770144.676862) vcan0 183#0000000C0000100F
(1649770144.678181) vcan0 143#6B6B00C2
(1649770144.679540) vcan0 095#800007F400000035
(1649770144.679560) vcan0 244#00000001AB
(1649770144.680802) vcan0 1A4#000000080000002F
(1649770144.680860) vcan0 1AA#7FFF00000000682F
(1649770144.680868) vcan0 1B0#000F0000000166
(1649770144.680874) vcan0 1D0#000000000000000A
(1649770144.682146) vcan0 166#D0320009
(1649770144.683565) vcan0 158#000000000000000A
(1649770144.683618) vcan0 161#000005500108000D
(1649770144.684912) vcan0 191#010090A1410030
(1649770144.684941) vcan0 164#0000C01AA8000031
(1649770144.684949) vcan0 133#0000000098
(1649770144.684956) vcan0 136#000200000000001B
(1649770144.684963) vcan0 13A#0000000000000019
(1649770144.684969) vcan0 13F#000000050000001F
(1649770144.686318) vcan0 17C#0000000010000012
(1649770144.686374) vcan0 18E#00005C
(1649770144.686382) vcan0 039#001B
(1649770144.687520) vcan0 183#0000000900001011
(1649770144.687575) vcan0 143#6B6B00D1
(1649770144.690154) vcan0 095#800007F400000008
(1649770144.692556) vcan0 166#D0320018
(1649770144.693916) vcan0 158#0000000000000019
(1649770144.693980) vcan0 161#000005500108001C
(1649770144.693988) vcan0 191#010090A1410003
(1649770144.693994) vcan0 164#0000C01AA8000004
(1649770144.695398) vcan0 133#00000000A7
(1649770144.695459) vcan0 136#000200000000002A
(1649770144.695467) vcan0 13A#0000000000000028
(1649770144.695473) vcan0 13F#000000050000002E
(1649770144.695479) vcan0 17C#0000000010000021
(1649770144.695485) vcan0 18E#00006B
(1649770144.695491) vcan0 1CF#80050000001E
(1649770144.695532) vcan0 244#0000000187
(1649770144.696879) vcan0 1DC#0200001B
(1649770144.696929) vcan0 183#0000000600001023
(1649770144.698118) vcan0 143#6B6B00E0
(1649770144.698189) vcan0 333#0000000000002D
(1649770144.698196) vcan0 039#002A
(1649770144.699450) vcan0 095#800007F400000017
(1649770144.700807) vcan0 1A4#000000080000003E
(1649770144.700855) vcan0 1AA#7FFF00000000673F
(1649770144.700863) vcan0 1B0#000F0000000175
(1649770144.700869) vcan0 1D0#000000000000000A
(1649770144.702202) vcan0 166#D0320027
(1649770144.703593) vcan0 158#0000000000000028
(1649770144.703649) vcan0 161#000005500108002B
(1649770144.703658) vcan0 191#010090A1410012
(1649770144.705078) vcan0 133#00000000B6
(1649770144.705173) vcan0 136#0002000000000039
(1649770144.705183) vcan0 13A#0000000000000037
(1649770144.705189) vcan0 13F#000000050000003D
(1649770144.705198) vcan0 164#0000C01AA8000013
(1649770144.706415) vcan0 17C#0000000010000030
(1649770144.706475) vcan0 18E#00007A
(1649770144.706483) vcan0 294#040B0002CF5A001D
(1649770144.706490) vcan0 21E#03E83745220610
(1649770144.707638) vcan0 183#0000000C0000103C
(1649770144.707691) vcan0 143#6B6B00FF
(1649770144.710304) vcan0 095#800007F400000026
(1649770144.711285) vcan0 244#00000001C6
(1649770144.712620) vcan0 166#D0320036
(1649770144.712677) vcan0 039#0039
(1649770144.713889) vcan0 158#0000000000000037
(1649770144.713937) vcan0 161#000005500108003A
(1649770144.713943) vcan0 191#010010A1410029
(1649770144.713948) vcan0 164#0000C01AA8000022
(1649770144.715176) vcan0 133#0000000089
(1649770144.715211) vcan0 136#000200000000000C
(1649770144.715217) vcan0 13A#000000000000000A
(1649770144.715222) vcan0 13F#0000000500000000
(1649770144.715226) vcan0 17C#0000000010000003
(1649770144.716533) vcan0 18E#00004D
(1649770144.716571) vcan0 1CF#80050000002D
(1649770144.716577) vcan0 1DC#0200002A
(1649770144.716581) vcan0 320#000021
(1649770144.716586) vcan0 324#7465000000000E29
(1649770144.716591) vcan0 183#0000000900001002
(1649770144.716596) vcan0 37C#FD00FD00097F0029
(1649770144.717866) vcan0 143#6B6B00C2
(1649770144.720442) vcan0 095#800007F800000031
(1649770144.720486) vcan0 1A4#0000000800000001
(1649770144.720492) vcan0 1AA#7FFF000000006702
(1649770144.720497) vcan0 1B0#000F0000000148
(1649770144.721663) vcan0 1D0#000000000000000A
(1649770144.723017) vcan0 166#D0320009
(1649770144.724234) vcan0 158#000000000000000A
(1649770144.724272) vcan0 161#000005500108000D
(1649770144.724278) vcan0 191#010010A1410038
(1649770144.724283) vcan0 133#0000000098
(1649770144.724288) vcan0 136#000200000000001B
(1649770144.725470) vcan0 13A#0000000000000019
(1649770144.725513) vcan0 13F#000000050000001F
(1649770144.725519) vcan0 164#0000C01AA8000031
(1649770144.725524) vcan0 039#000C
(1649770144.725529) vcan0 17C#0000000010000012
(1649770144.725533) vcan0 18E#00005C
(1649770144.726830) vcan0 305#8035
(1649770144.726875) vcan0 183#0000000E0000101C
(1649770144.726918) vcan0 244#00000001EB
(1649770144.728025) vcan0 143#6B6B00D1
(1649770144.729361) vcan0 095#800007F800000004
(1649770144.733195) vcan0 166#D0320018
(1649770144.733227) vcan0 158#0000000000000019
(1649770144.734543) vcan0 161#000005500108001C
(1649770144.734589) vcan0 191#010010A141000B
(1649770144.734597) vcan0 164#0000C01AA8000004
(1649770144.734603) vcan0 133#00000000A7
(1649770144.734609) vcan0 136#000200000000002A
(1649770144.735771) vcan0 13A#0000000000000028
(1649770144.735790) vcan0 13F#000000050000002E
(1649770144.735796) vcan0 17C#0000000010000021
(1649770144.735802) vcan0 18E#00006B
(1649770144.735808) vcan0 1CF#80050000003C
(1649770144.735814) vcan0 1DC#02000039
(1649770144.737042) vcan0 183#0000000A0000102F
(1649770144.737575) vcan0 244#00000001BC
(1649770144.738317) vcan0 143#6B6B00E0
(1649770144.739396) vcan0 095#800007F800000013
(1649770144.740735) vcan0 039#001B
(1649770144.740792) vcan0 1A4#0000000800000010
(1649770144.740800) vcan0 1AA#7FFF000000006810
(1649770144.740806) vcan0 1B0#000F0000000157
(1649770144.740812) vcan0 1D0#000000000000000A
(1649770144.742091) vcan0 166#D0320027
(1649770144.743353) vcan0 158#0000000000000028
(1649770144.744720) vcan0 161#000005500108002B
(1649770144.744762) vcan0 191#010010A141001A
(1649770144.744770) vcan0 164#0000C01AA8000013
(1649770144.744776) vcan0 133#00000000B6
(1649770144.744782) vcan0 136#0002000000000039
(1649770144.744787) vcan0 13A#0000000000000037
(1649770144.746058) vcan0 13F#000000050000003D
(1649770144.746115) vcan0 17C#0000000010000030
(1649770144.746123) vcan0 18E#00007A
(1649770144.746130) vcan0 294#040B0002CF5A002C
(1649770144.746136) vcan0 21E#03E8374522062F
(1649770144.746142) vcan0 309#00000000000000B1
(1649770144.747335) vcan0 183#0000000700001031
(1649770144.748635) vcan0 143#6B6B00FF
(1649770144.749937) vcan0 095#800007F800000022
(1649770144.752631) vcan0 166#D0320036
(1649770144.753428) vcan0 244#000000013F
(1649770144.753927) vcan0 158#0000000000000037
(1649770144.753970) vcan0 161#000005500108003A
(1649770144.753978) vcan0 191#010010A1410029
(1649770144.753984) vcan0 164#0000C01AA8000022
(1649770144.755168) vcan0 133#0000000089
(1649770144.755205) vcan0 136#000200000000000C
(1649770144.755212) vcan0 13A#000000000000000A
(1649770144.755218) vcan0 039#002A
(1649770144.755224) vcan0 13F#0000000500000000
(1649770144.756354) vcan0 17C#0000000010000003
(1649770144.756396) vcan0 18E#00004D
(1649770144.756402) vcan0 1CF#80050000000F
(1649770144.756407) vcan0 1DC#0200000C
(1649770144.756411) vcan0 183#0000000D0000100E
(1649770144.757605) vcan0 143#6B6B00C2
(1649770144.759957) vcan0 095#800007F800000031
(1649770144.760010) vcan0 1A4#000000080000002F
(1649770144.761337) vcan0 1AA#7FFF00000000682F
(1649770144.761407) vcan0 1B0#000F0000000166
(1649770144.761416) vcan0 1D0#000000000000000A
(1649770144.762755) vcan0 166#D0320009
(1649770144.764054) vcan0 158#000000000000000A
(1649770144.764120) vcan0 161#000005500108000D
(1649770144.764129) vcan0 191#010010A1410038
(1649770144.764135) vcan0 133#0000000098
(1649770144.765471) vcan0 136#000200000000001B
(1649770144.765537) vcan0 13A#0000000000000019
(1649770144.765546) vcan0 13F#000000050000001F
(1649770144.765552) vcan0 164#0000C01AA8000031
(1649770144.765558) vcan0 17C#0000000010000012
(1649770144.765563) vcan0 18E#00005C
(1649770144.766867) vcan0 183#0000000900001011
(1649770144.768150) vcan0 143#6B6B00D1
(1649770144.769387) vcan0 039#0039
(1649770144.769463) vcan0 095#800007F400000008
(1649770144.769477) vcan0 244#00000001B6
(1649770144.773012) vcan0 166#D0320018
(1649770144.774263) vcan0 158#0000000000000019
(1649770144.774305) vcan0 161#000005500108001C
(1649770144.774311) vcan0 191#010010A141000B
(1649770144.774316) vcan0 164#0000C01AA8000004
(1649770144.774320) vcan0 133#00000000A7
(1649770144.775455) vcan0 136#000200000000002A
(1649770144.775496) vcan0 13A#0000000000000028
(1649770144.775502) vcan0 13F#000000050000002E
(1649770144.775507) vcan0 17C#0000000010000021
(1649770144.775511) vcan0 18E#00006B
(1649770144.776778) vcan0 1CF#80050000001E
(1649770144.776820) vcan0 1DC#0200001B
(1649770144.776826) vcan0 183#0000000E0000102B
(1649770144.778128) vcan0 143#6B6B00E0
(1649770144.779500) vcan0 095#800007F400000017
(1649770144.780790) vcan0 1A4#000000080000003E
(1649770144.780846) vcan0 1AA#7FFF00000000673F
(1649770144.780854) vcan0 1B0#000F0000000175
(1649770144.780860) vcan0 1D0#000000000000000A
(1649770144.782127) vcan0 166#D0320027
(1649770144.783439) vcan0 158#0000000000000028
(1649770144.783496) vcan0 161#000005500108002B
(1649770144.784710) vcan0 039#000C
(1649770144.784776) vcan0 191#010010A141001A
(1649770144.784784) vcan0 133#00000000B6
(1649770144.784790) vcan0 136#0002000000000039
(1649770144.784796) vcan0 13A#0000000000000037
(1649770144.784802) vcan0 13F#000000050000003D
(1649770144.785151) vcan0 244#0000000188
(1649770144.786090) vcan0 164#0000C01AA8000013
(1649770144.786104) vcan0 17C#0000000010000030
(1649770144.786109) vcan0 18E#00007A
(1649770144.786115) vcan0 294#040B0002CF5A003B
(1649770144.786119) vcan0 21E#03E8374522063E
(1649770144.787335) vcan0 183#0000000A0000103E
(1649770144.788570) vcan0 143#6B6B00FF
(1649770144.789722) vcan0 095#800007F400000026
(1649770144.792287) vcan0 166#D0320036
(1649770144.793724) vcan0 158#0000000000000037
(1649770144.793765) vcan0 161#000005500108003A
(1649770144.793771) vcan0 191#010010A1410029
(1649770144.795077) vcan0 164#0000C01AA8000022
(1649770144.795125) vcan0 133#0000000089
(1649770144.795131) vcan0 136#000200000000000C
(1649770144.795136) vcan0 13A#000000000000000A
(1649770144.795140) vcan0 13F#0000000500000000
(1649770144.795637) vcan0 244#000000018A
(1649770144.796414) vcan0 17C#0000000010000003
(1649770144.796436) vcan0 18E#00004D
(1649770144.796442) vcan0 1CF#80050000002D
(1649770144.796446) vcan0 1DC#0200002A
(1649770144.796451) vcan0 183#0000000700001004
(1649770144.797636) vcan0 143#6B6B00C2
(1649770144.798856) vcan0 333#0000000000003C
(1649770144.800059) vcan0 095#800007F400000035
(1649770144.800103) vcan0 1A4#0000000800000001
(1649770144.801275) vcan0 1AA#7FFF000000006801
(1649770144.801316) vcan0 1B0#000F0000000148
(1649770144.801322) vcan0 1D0#000000000000000A
(1649770144.802505) vcan0 166#D0320009
(1649770144.802545) vcan0 039#001B
(1649770144.803686) vcan0 158#000000000000000A
(1649770144.803723) vcan0 161#000005500108000D
(1649770144.803729) vcan0 191#010010A1410038
(1649770144.804928) vcan0 133#0000000098
(1649770144.804974) vcan0 136#000200000000001B
(1649770144.804980) vcan0 13A#0000000000000019
(1649770144.804985) vcan0 13F#000000050000001F
(1649770144.804989) vcan0 164#0000C01AA8000031
(1649770144.806148) vcan0 17C#0000000010000012
(1649770144.806187) vcan0 18E#00005C
(1649770144.807369) vcan0 183#0000000D0000101D
(1649770144.808650) vcan0 143#6B6B00D1
(1649770144.809999) vcan0 095#800007F800000004
(1649770144.811378) vcan0 244#00000001C8
(1649770144.812433) vcan0 166#D0320018
(1649770144.813701) vcan0 158#0000000000000019
(1649770144.813742) vcan0 161#000005500108001C
(1649770144.813750) vcan0 191#010010A141000B
(1649770144.814888) vcan0 164#0000C01AA8000004
(1649770144.814929) vcan0 133#00000000A7
(1649770144.814937) vcan0 136#000200000000002A
(1649770144.814943) vcan0 13A#0000000000000028
(1649770144.816129) vcan0 13F#000000050000002E
(1649770144.816171) vcan0 17C#0000000010000021
(1649770144.816179) vcan0 18E#00006B
(1649770144.816185) vcan0 1CF#80050000003C
(1649770144.816192) vcan0 1DC#02000039
(1649770144.816197) vcan0 320#000030
(1649770144.816203) vcan0 324#7465000000000E38
(1649770144.817359) vcan0 183#0000000900001020
(1649770144.817374) vcan0 37C#FD00FD00097F0038
(1649770144.817379) vcan0 039#002A
(1649770144.817384) vcan0 40C#0000000004000013
(1649770144.817388) vcan0 454#23EF18
(1649770144.818602) vcan0 143#6B6B00E0
(1649770144.819774) vcan0 095#800007F800000013
(1649770144.821005) vcan0 1A4#0000000800000010
(1649770144.821046) vcan0 1AA#7FFF000000006810
(1649770144.821052) vcan0 1B0#000F0000000157
(1649770144.821057) vcan0 1D0#000000000000000A
(1649770144.822170) vcan0 166#D0320027
(1649770144.823394) vcan0 158#0000000000000028
(1649770144.824723) vcan0 161#000005500108002B
(1649770144.824784) vcan0 191#010010A141001A
(1649770144.824791) vcan0 133#00000000B6
(1649770144.824796) vcan0 136#0002000000000039
(1649770144.824800) vcan0 13A#0000000000000037
(1649770144.824805) vcan0 13F#000000050000003D
(1649770144.825985) vcan0 164#0000C01AA8000013
(1649770144.826040) vcan0 17C#0000000010000030
(1649770144.826046) vcan0 18E#00007A
(1649770144.826051) vcan0 294#040B0002CF5A000E
(1649770144.826056) vcan0 21E#03E83745220601
(1649770144.827043) vcan0 244#00000001D5
(1649770144.827193) vcan0 183#0000000600001032
(1649770144.828343) vcan0 143#6B6B00FF
(1649770144.829640) vcan0 095#800007F800000022
(1649770144.829706) vcan0 039#0039
(1649770144.830935) vcan0 305#8008
(1649770144.832220) vcan0 166#D0320036
(1649770144.833483) vcan0 158#0000000000000037
(1649770144.833530) vcan0 161#000005500108003A
(1649770144.834688) vcan0 191#010010A1410029
(1649770144.834728) vcan0 164#0000C01AA8000022
(1649770144.834734) vcan0 133#0000000089
(1649770144.834739) vcan0 136#000200000000000C
(1649770144.834744) vcan0 13A#000000000000000A
(1649770144.835875) vcan0 13F#0000000500000000
(1649770144.835914) vcan0 17C#0000000010000003
(1649770144.835920) vcan0 18E#00004D
(1649770144.835925) vcan0 1CF#80050000000F
(1649770144.835929) vcan0 1DC#0200000C
(1649770144.837068) vcan0 183#0000000C0000100F
(1649770144.837388) vcan0 244#00000001D3
(1649770144.838261) vcan0 143#6B6B00C2
(1649770144.839433) vcan0 095#800007F800000031
(1649770144.840645) vcan0 1A4#000000080000002F
(1649770144.840677) vcan0 1AA#7FFF00000000682F
(1649770144.840683) vcan0 1B0#000F0000000166
(1649770144.840688) vcan0 1D0#000000000000000A
(1649770144.843054) vcan0 166#D0320009
(1649770144.844318) vcan0 158#000000000000000A
(1649770144.844357) vcan0 161#000005500108000D
(1649770144.844364) vcan0 191#010010A1410038
(1649770144.844369) vcan0 164#0000C01AA8000031
(1649770144.844375) vcan0 133#0000000098
(1649770144.845654) vcan0 136#000200000000001B
(1649770144.845709) vcan0 039#000C
(1649770144.845718) vcan0 13A#0000000000000019
(1649770144.845724) vcan0 13F#000000050000001F
(1649770144.845730) vcan0 17C#0000000010000012
(1649770144.845736) vcan0 18E#00005C
(1649770144.846919) vcan0 309#0000000000000084
(1649770144.846970) vcan0 428#01040000521C2F
(1649770144.846979) vcan0 405#0000040000000029
(1649770144.846985) vcan0 183#0000000900001011
(1649770144.848158) vcan0 143#6B6B00D1
(1649770144.849420) vcan0 095#800007F800000004
(1649770144.852928) vcan0 244#00000001D1
(1649770144.852962) vcan0 166#D0320018
(1649770144.854086) vcan0 158#0000000000000019
(1649770144.854112) vcan0 161#000005500108001C
(1649770144.854118) vcan0 191#010010A141000B
(1649770144.854130) vcan0 164#0000C01AA8000004
(1649770144.854135) vcan0 133#00000000A7
(1649770144.855263) vcan0 136#000200000000002A
(1649770144.855290) vcan0 13A#0000000000000028
(1649770144.855303) vcan0 13F#000000050000002E
(1649770144.855310) vcan0 17C#0000000010000021
(1649770144.855316) vcan0 18E#00006B
(1649770144.856550) vcan0 1CF#80050000001E
(1649770144.856586) vcan0 1DC#0200001B
(1649770144.856592) vcan0 183#0000000E0000102B
(1649770144.857736) vcan0 143#6B6B00E0
(1649770144.860128) vcan0 095#800007F800000013
(1649770144.860163) vcan0 039#001B
(1649770144.860170) vcan0 1A4#000000080000003E
(1649770144.861427) vcan0 1AA#7FFF00000000673F
(1649770144.861462) vcan0 1B0#000F0000000175
(1649770144.861469) vcan0 1D0#000000000000000A
(1649770144.862700) vcan0 166#D0320027
(1649770144.863491) vcan0 244#000000019A
(1649770144.863856) vcan0 158#0000000000000028
(1649770144.863908) vcan0 161#000005500108002B
(1649770144.863918) vcan0 191#010010A141001A
(1649770144.865085) vcan0 164#0000C01AA8000013
(1649770144.865131) vcan0 133#00000000B6
(1649770144.865137) vcan0 136#0002000000000039
(1649770144.865142) vcan0 13A#0000000000000037
(1649770144.865148) vcan0 13F#000000050000003D
(1649770144.866302) vcan0 17C#0000000010000030
(1649770144.866352) vcan0 18E#00007A
(1649770144.866358) vcan0 294#040B0002CF5A001D
(1649770144.866363) vcan0 21E#03E83745220610
(1649770144.867509) vcan0 183#0000000A0000103E
(1649770144.867561) vcan0 143#6B6B00FF
(1649770144.869954) vcan0 095#800007F400000026
(1649770144.872414) vcan0 166#D0320036
(1649770144.873587) vcan0 158#0000000000000037
(1649770144.873625) vcan0 161#000005500108003A
(1649770144.873643) vcan0 039#002A
(1649770144.874914) vcan0 191#010010A1410029
(1649770144.874964) vcan0 164#0000C01AA8000022
(1649770144.874971) vcan0 133#0000000089
(1649770144.874977) vcan0 136#000200000000000C
(1649770144.874983) vcan0 13A#000000000000000A
(1649770144.874989) vcan0 13F#0000000500000000
(1649770144.876222) vcan0 17C#0000000010000003
(1649770144.876278) vcan0 18E#00004D
(1649770144.876286) vcan0 1CF#80050000002D
(1649770144.876292) vcan0 1DC#0200002A
(1649770144.876298) vcan0 183#0000000F0000100C
(1649770144.877574) vcan0 143#6B6B00C2
(1649770144.879147) vcan0 244#00000001EC
(1649770144.880327) vcan0 095#800007F400000035
(1649770144.880345) vcan0 1A4#0000000800000001
(1649770144.880352) vcan0 1AA#7FFF000000006801
(1649770144.881664) vcan0 1B0#000F0000000148
(1649770144.881720) vcan0 1D0#000000000000000A
(1649770144.883037) vcan0 166#D0320009
(1649770144.884353) vcan0 158#000000000000000A
(1649770144.884414) vcan0 161#000005500108000D
(1649770144.884423) vcan0 191#010010A1410038
(1649770144.884429) vcan0 164#0000C01AA8000031
(1649770144.884435) vcan0 133#0000000098
(1649770144.884441) vcan0 136#000200000000001B
(1649770144.885789) vcan0 13A#0000000000000019
(1649770144.885842) vcan0 13F#000000050000001F
(1649770144.885851) vcan0 17C#0000000010000012
(1649770144.885857) vcan0 18E#00005C
(1649770144.887123) vcan0 183#0000000B0000101F
(1649770144.888391) vcan0 143#6B6B00D1
(1649770144.889657) vcan0 244#0000000182
(1649770144.889694) vcan0 039#0039
(1649770144.889708) vcan0 095#800007F400000008
(1649770144.892147) vcan0 166#D0320018
(1649770144.893444) vcan0 158#0000000000000019
(1649770144.893477) vcan0 161#000005500108001C
(1649770144.894655) vcan0 191#010010A141000B
(1649770144.894688) vcan0 164#0000C01AA8000004
(1649770144.894694) vcan0 133#00000000A7
(1649770144.894699) vcan0 136#000200000000002A
(1649770144.894704) vcan0 13A#0000000000000028
(1649770144.895878) vcan0 13F#000000050000002E
(1649770144.895912) vcan0 17C#0000000010000021
(1649770144.895917) vcan0 18E#00006B
(1649770144.895922) vcan0 1CF#80050000003C
(1649770144.895927) vcan0 1DC#02000039
(1649770144.897215) vcan0 183#0000000800001021
(1649770144.898529) vcan0 143#6B6B00E0
(1649770144.898572) vcan0 333#0000000000000F
(1649770144.899765) vcan0 095#800007F400000017
(1649770144.901167) vcan0 1A4#0000000800000010
(1649770144.901245) vcan0 1AA#7FFF000000006810
(1649770144.901254) vcan0 1B0#000F0000000157
(1649770144.901260) vcan0 1D0#000000000000000A
(1649770144.902537) vcan0 166#D0320027
(1649770144.902586) vcan0 039#000C
(1649770144.903769) vcan0 158#0000000000000028
(1649770144.903822) vcan0 161#000005500108002B
(1649770144.903829) vcan0 191#010010A141001A
(1649770144.905294) vcan0 133#00000000B6
(1649770144.905331) vcan0 244#0000000162
(1649770144.905357) vcan0 136#0002000000000039
(1649770144.905364) vcan0 13A#0000000000000037
(1649770144.905369) vcan0 13F#000000050000003D
(1649770144.905375) vcan0 164#0000C01AA8000013
(1649770144.905380) vcan0 17C#0000000010000030
(1649770144.905385) vcan0 18E#00007A
(1649770144.906555) vcan0 294#040B0002CF5A002C
(1649770144.906609) vcan0 21E#03E8374522062F
(1649770144.907763) vcan0 183#0000000600001032
(1649770144.907800) vcan0 143#6B6B00FF
(1649770144.910329) vcan0 095#800007F400000026
(1649770144.912767) vcan0 166#D0320036
(1649770144.914032) vcan0 158#0000000000000037
(1649770144.914087) vcan0 161#000005500108003A
(1649770144.914095) vcan0 191#010010A1410029
(1649770144.914101) vcan0 164#0000C01AA8000022
(1649770144.914107) vcan0 133#0000000089
(1649770144.915358) vcan0 136#000200000000000C
(1649770144.915406) vcan0 13A#000000000000000A
(1649770144.915414) vcan0 13F#0000000500000000
(1649770144.915421) vcan0 17C#0000000010000003
(1649770144.915427) vcan0 18E#00004D
(1649770144.916602) vcan0 1CF#80050000000F
(1649770144.916655) vcan0 1DC#0200000C
(1649770144.916663) vcan0 320#000003
(1649770144.916669) vcan0 324#7465000000000E0B
(1649770144.916675) vcan0 183#0000000400001007
(1649770144.916681) vcan0 37C#FD00FD00097F000B
(1649770144.917995) vcan0 143#6B6B00C2
(1649770144.919382) vcan0 095#800007F400000035
(1649770144.920874) vcan0 1A4#000000080000002F
(1649770144.920966) vcan0 1AA#7FFF00000000682F
(1649770144.920975) vcan0 1B0#000F0000000166
(1649770144.920981) vcan0 1D0#000000000000000A
(1649770144.921241) vcan0 244#000000015D
(1649770144.922357) vcan0 039#001B
(1649770144.922386) vcan0 166#D0320009
(1649770144.923559) vcan0 158#000000000000000A
(1649770144.923636) vcan0 161#000005500108000D
(1649770144.923645) vcan0 191#010010A1410038
(1649770144.924849) vcan0 133#0000000098
(1649770144.924903) vcan0 136#000200000000001B
(1649770144.924910) vcan0 13A#0000000000000019
(1649770144.924915) vcan0 13F#000000050000001F
(1649770144.926255) vcan0 164#0000C01AA8000031
(1649770144.926325) vcan0 17C#0000000010000012
(1649770144.926333) vcan0 18E#00005C
(1649770144.927539) vcan0 183#0000000300001017
(1649770144.927609) vcan0 143#6B6B00D1
(1649770144.930309) vcan0 095#800007F400000008
(1649770144.933017) vcan0 166#D0320018
(1649770144.934436) vcan0 158#0000000000000019
(1649770144.934502) vcan0 161#000005500108001C
(1649770144.934510) vcan0 191#010010A141000B
(1649770144.934516) vcan0 164#0000C01AA8000004
(1649770144.934522) vcan0 133#00000000A7
(1649770144.934528) vcan0 136#000200000000002A
(1649770144.935702) vcan0 13A#0000000000000028
(1649770144.935769) vcan0 13F#000000050000002E
(1649770144.935778) vcan0 17C#0000000010000021
(1649770144.935784) vcan0 18E#00006B
(1649770144.935790) vcan0 1CF#80050000001E
(1649770144.935796) vcan0 039#002A
(1649770144.935802) vcan0 1DC#0200001B
(1649770144.937062) vcan0 183#0000000A0000102F
(1649770144.937080) vcan0 244#0000000179
(1649770144.937131) vcan0 305#8017
(1649770144.938322) vcan0 143#6B6B00E0
(1649770144.939403) vcan0 095#800007F400000017
(1649770144.940657) vcan0 1A4#000000080000003E
(1649770144.940689) vcan0 1AA#7FFF00000000673F
(1649770144.940695) vcan0 1B0#000F0000000175
(1649770144.941938) vcan0 1D0#000000000000000A
(1649770144.941982) vcan0 166#D0320027
(1649770144.943243) vcan0 158#0000000000000028
(1649770144.944587) vcan0 161#000005500108002B
(1649770144.944643) vcan0 191#010010A141001A
(1649770144.944651) vcan0 164#0000C01AA8000013
(1649770144.944657) vcan0 133#00000000B6
(1649770144.944663) vcan0 136#0002000000000039
(1649770144.945946) vcan0 13A#0000000000000037
(1649770144.946001) vcan0 13F#000000050000003D
(1649770144.946009) vcan0 17C#0000000010000030
(1649770144.946015) vcan0 18E#00007A
(1649770144.946021) vcan0 294#040B0002CF5A003B
(1649770144.946027) vcan0 21E#03E8374522063E
(1649770144.947390) vcan0 309#0000000000000093
(1649770144.947446) vcan0 183#0000000700001031
(1649770144.947455) vcan0 143#6B6B00FF
(1649770144.947561) vcan0 244#000000018D
(1649770144.949859) vcan0 095#800007F400000026
(1649770144.949938) vcan0 039#0039
(1649770144.952402) vcan0 166#D0320036
(1649770144.953707) vcan0 158#0000000000000037
(1649770144.953773) vcan0 161#000005500108003A
(1649770144.953782) vcan0 191#010010A1410029
(1649770144.955008) vcan0 164#0000C01AA8000022
(1649770144.955110) vcan0 133#0000000089
(1649770144.955160) vcan0 136#000200000000000C
(1649770144.955177) vcan0 13A#000000000000000A
(1649770144.955184) vcan0 13F#0000000500000000
(1649770144.955190) vcan0 17C#0000000010000003
(1649770144.956418) vcan0 18E#00004D
(1649770144.956461) vcan0 1CF#80050000002D
(1649770144.956468) vcan0 1DC#0200002A
(1649770144.956473) vcan0 183#0000000D0000100E
(1649770144.957607) vcan0 143#6B6B00C2
(1649770144.960019) vcan0 095#800007F400000035
(1649770144.960064) vcan0 1A4#0000000800000001
(1649770144.961340) vcan0 1AA#7FFF000000006801
(1649770144.961390) vcan0 1B0#000F0000000148
(1649770144.961398) vcan0 1D0#000000000000000A
(1649770144.962651) vcan0 166#D0320009
(1649770144.963202) vcan0 244#0000000124
(1649770144.963877) vcan0 158#000000000000000A
(1649770144.963918) vcan0 161#000005500108000D
(1649770144.963926) vcan0 191#010010A1410038
(1649770144.963932) vcan0 039#000C
(1649770144.965256) vcan0 133#0000000098
(1649770144.965327) vcan0 136#000200000000001B
(1649770144.965336) vcan0 13A#0000000000000019
(1649770144.965342) vcan0 13F#000000050000001F
(1649770144.965348) vcan0 164#0000C01AA8000031
(1649770144.965354) vcan0 17C#0000000010000012
(1649770144.965360) vcan0 18E#00005C
(1649770144.967686) vcan0 183#0000001100001018
(1649770144.967752) vcan0 143#6B6B00D1
(1649770144.970150) vcan0 095#800007F400000008
(1649770144.972633) vcan0 166#D0320018
(1649770144.973825) vcan0 158#0000000000000019
(1649770144.973867) vcan0 161#000005500108001C
(1649770144.973873) vcan0 191#010010A141000B
(1649770144.975005) vcan0 164#0000C01AA8000004
(1649770144.975057) vcan0 133#00000000A7
(1649770144.975063) vcan0 136#000200000000002A
(1649770144.975068) vcan0 13A#0000000000000028
(1649770144.975072) vcan0 13F#000000050000002E
(1649770144.975076) vcan0 17C#0000000010000021
(1649770144.976292) vcan0 18E#00006B
(1649770144.976334) vcan0 1CF#80050000003C
(1649770144.976340) vcan0 1DC#02000039
(1649770144.976344) vcan0 183#0000000C0000102D
(1649770144.977622) vcan0 039#001B
(1649770144.977674) vcan0 143#6B6B00E0
(1649770144.978991) vcan0 244#0000000146
(1649770144.979045) vcan0 188#00000000
(1649770144.980141) vcan0 095#800007F400000017
(1649770144.980175) vcan0 1A4#0000000800000010
(1649770144.981333) vcan0 1AA#7FFF000000006810
(1649770144.981358) vcan0 1B0#000F0000000157
(1649770144.981363) vcan0 1D0#000000000000000A
(1649770144.982556) vcan0 166#D0320027
(1649770144.983751) vcan0 158#0000000000000028
(1649770144.983778) vcan0 161#000005500108002B
(1649770144.983784) vcan0 191#010010A141001A
(1649770144.984992) vcan0 164#0000C01AA8000013
(1649770144.985005) vcan0 133#00000000B6
(1649770144.985010) vcan0 136#0002000000000039
(1649770144.985015) vcan0 13A#0000000000000037
(1649770144.985019) vcan0 13F#000000050000003D
(1649770144.986278) vcan0 17C#0000000010000030
(1649770144.986296) vcan0 18E#00007A
(1649770144.986303) vcan0 294#040B0002CF5A000E
(1649770144.986309) vcan0 21E#03E83745220601
(1649770144.987465) vcan0 183#000000090000103F
(1649770144.987484) vcan0 143#6B6B00FF
(1649770144.989522) vcan0 244#000000019A
(1649770144.989954) vcan0 095#800007F400000026
(1649770144.991119) vcan0 039#002A
(1649770144.992372) vcan0 166#D0320036
(1649770144.993633) vcan0 158#0000000000000037
(1649770144.993690) vcan0 161#000005500108003A
(1649770144.993698) vcan0 191#010010A1410029
(1649770144.994901) vcan0 164#0000C01AA8000022
(1649770144.995004) vcan0 133#0000000089
(1649770144.995012) vcan0 136#000200000000000C
(1649770144.995018) vcan0 13A#000000000000000A
(1649770144.995024) vcan0 13F#0000000500000000
(1649770144.996275) vcan0 17C#0000000010000003
(1649770144.996331) vcan0 18E#00004D
(1649770144.996339) vcan0 1CF#80050000000F
(1649770144.996345) vcan0 1DC#0200000C
(1649770144.996351) vcan0 183#0000000600001005
(1649770144.997766) vcan0 143#6B6B00C2
(1649770144.999028) vcan0 333#0000000000001E
(1649770145.000189) vcan0 095#800007F400000035
(1649770145.000239) vcan0 1A4#000000080000002F
(1649770145.000247) vcan0 1AA#7FFF00000000682F
(1649770145.001636) vcan0 1B0#000F0000000166
(1649770145.001688) vcan0 1D0#000000000000000A
(1649770145.003011) vcan0 166#D0320009
(1649770145.004346) vcan0 158#000000000000000A
(1649770145.004411) vcan0 161#000005500108000D
(1649770145.004420) vcan0 191#010010A1410038
(1649770145.004427) vcan0 133#0000000098
(1649770145.004444) vcan0 136#000200000000001B
(1649770145.005473) vcan0 244#00000001E8
(1649770145.005649) vcan0 13A#0000000000000019
(1649770145.005689) vcan0 13F#000000050000001F
(1649770145.005698) vcan0 164#0000C01AA8000031
(1649770145.005704) vcan0 17C#0000000010000012
